Command: /fetools/work_area/frontend/Batch_11/spoorthibhat/uvm/projects/AXI_Slave_Verification/src/work/simv +UVM_TESTNAME=axi_write_da_test +UVM_VERBOSITY=UVM_HIGH +ntb_random_seed=13718 -cm line+cond+fsm+tgl+branch+assert -cm_dir work/regression.vdb -cm_name axi_write_da_test_13718 -l work/logs/axi_write_da_test_13718.log +UVM_NO_RELNOTES
Chronologic VCS simulator copyright 1991-2020
Contains Synopsys proprietary information.
Compiler version Q-2020.03-SP2-8_Full64; Runtime version Q-2020.03-SP2-8_Full64;  Sep 18 14:55 2026
----------------------------------------------------------------
UVM-1.1d.Synopsys
(C) 2007-2013 Mentor Graphics Corporation
(C) 2007-2013 Cadence Design Systems, Inc.
(C) 2006-2013 Synopsys, Inc.
(C) 2011-2013 Cypress Semiconductor Corp.
----------------------------------------------------------------
### TOP INITIAL START : time=0
### AFTER CONFIG SET : time=0
UVM_INFO @ 0: reporter [RNTST] Running test axi_write_da_test...
UVM_INFO @ 0: reporter [UVMTOP] UVM testbench topology:
-----------------------------------------------------------------------
Name                            Type                        Size  Value
-----------------------------------------------------------------------
uvm_test_top                    axi_write_da_test           -     @477 
  env                           axi_env                     -     @491 
    inp_agt                     axi_inp_agent               -     @500 
      inp_drv                   axi_driver                  -     @1030
        rd_prt                  uvm_seq_item_pull_port      -     @1056
        rsp_port                uvm_analysis_port           -     @1047
        seq_item_port           uvm_seq_item_pull_port      -     @1038
      inp_mon                   axi_inp_monitor             -     @758 
        inp_monitor_port_read   uvm_analysis_port           -     @775 
        inp_monitor_port_write  uvm_analysis_port           -     @766 
      rd_sqr                    axi_sequencer               -     @907 
        rsp_export              uvm_analysis_export         -     @915 
        seq_item_export         uvm_seq_item_pull_imp       -     @1021
        arbitration_queue       array                       0     -    
        lock_queue              array                       0     -    
        num_last_reqs           integral                    32    'd1  
        num_last_rsps           integral                    32    'd1  
      wr_sqr                    axi_sequencer               -     @784 
        rsp_export              uvm_analysis_export         -     @792 
        seq_item_export         uvm_seq_item_pull_imp       -     @898 
        arbitration_queue       array                       0     -    
        lock_queue              array                       0     -    
        num_last_reqs           integral                    32    'd1  
        num_last_rsps           integral                    32    'd1  
    op_agt                      axi_op_agent                -     @508 
      op_mon                    axi_op_monitor              -     @1084
        op_m_port_read          uvm_analysis_port           -     @1101
        op_m_port_write         uvm_analysis_port           -     @1092
    scb                         axi_scoreboard              -     @516 
      ip_mon_fifo_read          uvm_tlm_analysis_fifo #(T)  -     @577 
        analysis_export         uvm_analysis_imp            -     @621 
        get_ap                  uvm_analysis_port           -     @612 
        get_peek_export         uvm_get_peek_imp            -     @594 
        put_ap                  uvm_analysis_port           -     @603 
        put_export              uvm_put_imp                 -     @585 
      ip_mon_fifo_write         uvm_tlm_analysis_fifo #(T)  -     @524 
        analysis_export         uvm_analysis_imp            -     @568 
        get_ap                  uvm_analysis_port           -     @559 
        get_peek_export         uvm_get_peek_imp            -     @541 
        put_ap                  uvm_analysis_port           -     @550 
        put_export              uvm_put_imp                 -     @532 
      op_mon_fifo_read          uvm_tlm_analysis_fifo #(T)  -     @683 
        analysis_export         uvm_analysis_imp            -     @727 
        get_ap                  uvm_analysis_port           -     @718 
        get_peek_export         uvm_get_peek_imp            -     @700 
        put_ap                  uvm_analysis_port           -     @709 
        put_export              uvm_put_imp                 -     @691 
      op_mon_fifo_write         uvm_tlm_analysis_fifo #(T)  -     @630 
        analysis_export         uvm_analysis_imp            -     @674 
        get_ap                  uvm_analysis_port           -     @665 
        get_peek_export         uvm_get_peek_imp            -     @647 
        put_ap                  uvm_analysis_port           -     @656 
        put_export              uvm_put_imp                 -     @638 
    sub                         axi_subscriber              -     @736 
      analysis_imp              uvm_analysis_imp            -     @744 
-----------------------------------------------------------------------

UVM_INFO axi_driver.sv(30) @ 0: uvm_test_top.env.inp_agt.inp_drv [DRV] Sequence Body started
UVM_INFO axi_driver.sv(129) @ 45: uvm_test_top.env.inp_agt.inp_drv [AXI_W] WDATA=f0f29c13 WSTRB=4 WVALID=1 WREADY=1
UVM_INFO axi_inp_monitor.sv(73) @ 55: uvm_test_top.env.inp_agt.inp_mon [AXI_W] WDATA=f0f29c13 WSTRB=4 WVALID=1 WREADY=1
UVM_INFO axi_op_monitor.sv(73) @ 55: uvm_test_top.env.op_agt.op_mon [OP_W] WVALID=1 WREADY=1 WDATA=f0f29c13 WSTRB=4
UVM_INFO axi_driver.sv(111) @ 95: uvm_test_top.env.inp_agt.inp_drv [AXI_AW] AWADDR=0 AWPROT=100 AWVALID=1 AWREADY=1
UVM_INFO axi_inp_monitor.sv(64) @ 105: uvm_test_top.env.inp_agt.inp_mon [AXI_AW] AWADDR=0 AWPROT=100 AWVALID=1 AWREADY=1
UVM_INFO axi_op_monitor.sv(64) @ 105: uvm_test_top.env.op_agt.op_mon [OP_AW] AWVALID=1 AWREADY=1 AWADDR=0 AWPROT=100
reg_file[0] = 00f20000
reg_file[1] = 00000000
reg_file[2] = 00000000
reg_file[3] = 00000000
reg_file[4] = 00000000
reg_file[5] = 00000000
reg_file[6] = 00000000
reg_file[7] = 00000000
reg_file[8] = 00000000
reg_file[9] = 00000000
reg_file[10] = 00000000
reg_file[11] = 00000000
reg_file[12] = 00000000
reg_file[13] = 00000000
reg_file[14] = 00000000
reg_file[15] = 00000000
UVM_INFO axi_driver.sv(145) @ 115: uvm_test_top.env.inp_agt.inp_drv [AXI_B] BREADY=1 BVALID=1 BRESP=0
UVM_INFO axi_inp_monitor.sv(81) @ 125: uvm_test_top.env.inp_agt.inp_mon [AXI_B] BREADY=1 BRESP=0 BVALID=1
UVM_INFO axi_subscriber.sv(158) @ 125: uvm_test_top.env.sub [sub] [DRIVER]:INPUT RECIEVED
UVM_INFO axi_op_monitor.sv(81) @ 125: uvm_test_top.env.op_agt.op_mon [OP_B] BVALID=1 BREADY=1 BRESP=0
UVM_INFO axi_scoreboard.sv(42) @ 125: uvm_test_top.env.scb [SCB] 4
UVM_INFO axi_scoreboard.sv(105) @ 125: uvm_test_top.env.scb [SCB] WRITE ADDRESS PASS: Exp_AWADDR=0 Actual_AWADDR=0
UVM_INFO axi_scoreboard.sv(110) @ 125: uvm_test_top.env.scb [SCB] WRITE DATA PASS: Exp_WDATA=f0f29c13 Actual_WDATA=f0f29c13
UVM_INFO axi_scoreboard.sv(115) @ 125: uvm_test_top.env.scb [SCB] WRITE WSTRB PASS: Exp_WSTRB=4 Actual_WSTRB=4
UVM_INFO axi_scoreboard.sv(120) @ 125: uvm_test_top.env.scb [SCB] WRITE BRESP PASS: Exp_BRESP=0 Actual_BRESP=0
UVM_INFO axi_driver.sv(129) @ 155: uvm_test_top.env.inp_agt.inp_drv [AXI_W] WDATA=30e74ec3 WSTRB=b WVALID=1 WREADY=1
UVM_INFO axi_inp_monitor.sv(73) @ 165: uvm_test_top.env.inp_agt.inp_mon [AXI_W] WDATA=30e74ec3 WSTRB=b WVALID=1 WREADY=1
UVM_INFO axi_op_monitor.sv(73) @ 165: uvm_test_top.env.op_agt.op_mon [OP_W] WVALID=1 WREADY=1 WDATA=30e74ec3 WSTRB=b
UVM_INFO axi_driver.sv(111) @ 205: uvm_test_top.env.inp_agt.inp_drv [AXI_AW] AWADDR=8 AWPROT=11 AWVALID=1 AWREADY=1
UVM_INFO axi_inp_monitor.sv(64) @ 215: uvm_test_top.env.inp_agt.inp_mon [AXI_AW] AWADDR=8 AWPROT=11 AWVALID=1 AWREADY=1
UVM_INFO axi_op_monitor.sv(64) @ 215: uvm_test_top.env.op_agt.op_mon [OP_AW] AWVALID=1 AWREADY=1 AWADDR=8 AWPROT=11
reg_file[0] = 00000000
reg_file[1] = 00000000
reg_file[2] = 30004ec3
reg_file[3] = 00000000
reg_file[4] = 00000000
reg_file[5] = 00000000
reg_file[6] = 00000000
reg_file[7] = 00000000
reg_file[8] = 00000000
reg_file[9] = 00000000
reg_file[10] = 00000000
reg_file[11] = 00000000
reg_file[12] = 00000000
reg_file[13] = 00000000
reg_file[14] = 00000000
reg_file[15] = 00000000
UVM_INFO axi_driver.sv(145) @ 225: uvm_test_top.env.inp_agt.inp_drv [AXI_B] BREADY=1 BVALID=1 BRESP=0
UVM_INFO axi_inp_monitor.sv(81) @ 235: uvm_test_top.env.inp_agt.inp_mon [AXI_B] BREADY=1 BRESP=0 BVALID=1
UVM_INFO axi_subscriber.sv(158) @ 235: uvm_test_top.env.sub [sub] [DRIVER]:INPUT RECIEVED
UVM_INFO axi_op_monitor.sv(81) @ 235: uvm_test_top.env.op_agt.op_mon [OP_B] BVALID=1 BREADY=1 BRESP=0
UVM_INFO axi_scoreboard.sv(42) @ 235: uvm_test_top.env.scb [SCB] b
UVM_INFO axi_scoreboard.sv(105) @ 235: uvm_test_top.env.scb [SCB] WRITE ADDRESS PASS: Exp_AWADDR=8 Actual_AWADDR=8
UVM_INFO axi_scoreboard.sv(110) @ 235: uvm_test_top.env.scb [SCB] WRITE DATA PASS: Exp_WDATA=30e74ec3 Actual_WDATA=30e74ec3
UVM_INFO axi_scoreboard.sv(115) @ 235: uvm_test_top.env.scb [SCB] WRITE WSTRB PASS: Exp_WSTRB=b Actual_WSTRB=b
UVM_INFO axi_scoreboard.sv(120) @ 235: uvm_test_top.env.scb [SCB] WRITE BRESP PASS: Exp_BRESP=0 Actual_BRESP=0
UVM_INFO axi_driver.sv(129) @ 255: uvm_test_top.env.inp_agt.inp_drv [AXI_W] WDATA=7a0491a8 WSTRB=6 WVALID=1 WREADY=1
UVM_INFO axi_inp_monitor.sv(73) @ 265: uvm_test_top.env.inp_agt.inp_mon [AXI_W] WDATA=7a0491a8 WSTRB=6 WVALID=1 WREADY=1
UVM_INFO axi_op_monitor.sv(73) @ 265: uvm_test_top.env.op_agt.op_mon [OP_W] WVALID=1 WREADY=1 WDATA=7a0491a8 WSTRB=6
UVM_INFO axi_driver.sv(111) @ 305: uvm_test_top.env.inp_agt.inp_drv [AXI_AW] AWADDR=4 AWPROT=11 AWVALID=1 AWREADY=1
UVM_INFO axi_inp_monitor.sv(64) @ 315: uvm_test_top.env.inp_agt.inp_mon [AXI_AW] AWADDR=4 AWPROT=11 AWVALID=1 AWREADY=1
UVM_INFO axi_op_monitor.sv(64) @ 315: uvm_test_top.env.op_agt.op_mon [OP_AW] AWVALID=1 AWREADY=1 AWADDR=4 AWPROT=11
reg_file[0] = 00000000
reg_file[1] = 00049100
reg_file[2] = 30004ec3
reg_file[3] = 00000000
reg_file[4] = 00000000
reg_file[5] = 00000000
reg_file[6] = 00000000
reg_file[7] = 00000000
reg_file[8] = 00000000
reg_file[9] = 00000000
reg_file[10] = 00000000
reg_file[11] = 00000000
reg_file[12] = 00000000
reg_file[13] = 00000000
reg_file[14] = 00000000
reg_file[15] = 00000000
UVM_INFO axi_driver.sv(145) @ 325: uvm_test_top.env.inp_agt.inp_drv [AXI_B] BREADY=1 BVALID=1 BRESP=0
UVM_INFO axi_inp_monitor.sv(81) @ 335: uvm_test_top.env.inp_agt.inp_mon [AXI_B] BREADY=1 BRESP=0 BVALID=1
UVM_INFO axi_subscriber.sv(158) @ 335: uvm_test_top.env.sub [sub] [DRIVER]:INPUT RECIEVED
UVM_INFO axi_op_monitor.sv(81) @ 335: uvm_test_top.env.op_agt.op_mon [OP_B] BVALID=1 BREADY=1 BRESP=0
UVM_INFO axi_scoreboard.sv(42) @ 335: uvm_test_top.env.scb [SCB] 6
UVM_INFO axi_scoreboard.sv(105) @ 335: uvm_test_top.env.scb [SCB] WRITE ADDRESS PASS: Exp_AWADDR=4 Actual_AWADDR=4
UVM_INFO axi_scoreboard.sv(110) @ 335: uvm_test_top.env.scb [SCB] WRITE DATA PASS: Exp_WDATA=7a0491a8 Actual_WDATA=7a0491a8
UVM_INFO axi_scoreboard.sv(115) @ 335: uvm_test_top.env.scb [SCB] WRITE WSTRB PASS: Exp_WSTRB=6 Actual_WSTRB=6
UVM_INFO axi_scoreboard.sv(120) @ 335: uvm_test_top.env.scb [SCB] WRITE BRESP PASS: Exp_BRESP=0 Actual_BRESP=0
UVM_INFO axi_driver.sv(129) @ 355: uvm_test_top.env.inp_agt.inp_drv [AXI_W] WDATA=e93a800 WSTRB=f WVALID=1 WREADY=1
UVM_INFO axi_inp_monitor.sv(73) @ 365: uvm_test_top.env.inp_agt.inp_mon [AXI_W] WDATA=e93a800 WSTRB=f WVALID=1 WREADY=1
UVM_INFO axi_op_monitor.sv(73) @ 365: uvm_test_top.env.op_agt.op_mon [OP_W] WVALID=1 WREADY=1 WDATA=e93a800 WSTRB=f
UVM_INFO axi_driver.sv(111) @ 405: uvm_test_top.env.inp_agt.inp_drv [AXI_AW] AWADDR=4 AWPROT=0 AWVALID=1 AWREADY=1
UVM_INFO axi_inp_monitor.sv(64) @ 415: uvm_test_top.env.inp_agt.inp_mon [AXI_AW] AWADDR=4 AWPROT=0 AWVALID=1 AWREADY=1
UVM_INFO axi_op_monitor.sv(64) @ 415: uvm_test_top.env.op_agt.op_mon [OP_AW] AWVALID=1 AWREADY=1 AWADDR=4 AWPROT=0
reg_file[0] = 00000000
reg_file[1] = 0e93a800
reg_file[2] = 30004ec3
reg_file[3] = 00000000
reg_file[4] = 00000000
reg_file[5] = 00000000
reg_file[6] = 00000000
reg_file[7] = 00000000
reg_file[8] = 00000000
reg_file[9] = 00000000
reg_file[10] = 00000000
reg_file[11] = 00000000
reg_file[12] = 00000000
reg_file[13] = 00000000
reg_file[14] = 00000000
reg_file[15] = 00000000
UVM_INFO axi_driver.sv(145) @ 425: uvm_test_top.env.inp_agt.inp_drv [AXI_B] BREADY=1 BVALID=1 BRESP=0
UVM_INFO axi_inp_monitor.sv(81) @ 435: uvm_test_top.env.inp_agt.inp_mon [AXI_B] BREADY=1 BRESP=0 BVALID=1
UVM_INFO axi_subscriber.sv(158) @ 435: uvm_test_top.env.sub [sub] [DRIVER]:INPUT RECIEVED
UVM_INFO axi_op_monitor.sv(81) @ 435: uvm_test_top.env.op_agt.op_mon [OP_B] BVALID=1 BREADY=1 BRESP=0
UVM_INFO axi_scoreboard.sv(42) @ 435: uvm_test_top.env.scb [SCB] f
UVM_INFO axi_scoreboard.sv(105) @ 435: uvm_test_top.env.scb [SCB] WRITE ADDRESS PASS: Exp_AWADDR=4 Actual_AWADDR=4
UVM_INFO axi_scoreboard.sv(110) @ 435: uvm_test_top.env.scb [SCB] WRITE DATA PASS: Exp_WDATA=e93a800 Actual_WDATA=e93a800
UVM_INFO axi_scoreboard.sv(115) @ 435: uvm_test_top.env.scb [SCB] WRITE WSTRB PASS: Exp_WSTRB=f Actual_WSTRB=f
UVM_INFO axi_scoreboard.sv(120) @ 435: uvm_test_top.env.scb [SCB] WRITE BRESP PASS: Exp_BRESP=0 Actual_BRESP=0
UVM_INFO axi_driver.sv(129) @ 455: uvm_test_top.env.inp_agt.inp_drv [AXI_W] WDATA=3d06f57a WSTRB=d WVALID=1 WREADY=1
UVM_INFO axi_inp_monitor.sv(73) @ 465: uvm_test_top.env.inp_agt.inp_mon [AXI_W] WDATA=3d06f57a WSTRB=d WVALID=1 WREADY=1
UVM_INFO axi_op_monitor.sv(73) @ 465: uvm_test_top.env.op_agt.op_mon [OP_W] WVALID=1 WREADY=1 WDATA=3d06f57a WSTRB=d
UVM_INFO axi_driver.sv(111) @ 505: uvm_test_top.env.inp_agt.inp_drv [AXI_AW] AWADDR=0 AWPROT=101 AWVALID=1 AWREADY=1
UVM_INFO axi_inp_monitor.sv(64) @ 515: uvm_test_top.env.inp_agt.inp_mon [AXI_AW] AWADDR=0 AWPROT=101 AWVALID=1 AWREADY=1
UVM_INFO axi_op_monitor.sv(64) @ 515: uvm_test_top.env.op_agt.op_mon [OP_AW] AWVALID=1 AWREADY=1 AWADDR=0 AWPROT=101
reg_file[0] = 3d06007a
reg_file[1] = 0e93a800
reg_file[2] = 30004ec3
reg_file[3] = 00000000
reg_file[4] = 00000000
reg_file[5] = 00000000
reg_file[6] = 00000000
reg_file[7] = 00000000
reg_file[8] = 00000000
reg_file[9] = 00000000
reg_file[10] = 00000000
reg_file[11] = 00000000
reg_file[12] = 00000000
reg_file[13] = 00000000
reg_file[14] = 00000000
reg_file[15] = 00000000
UVM_INFO axi_driver.sv(145) @ 525: uvm_test_top.env.inp_agt.inp_drv [AXI_B] BREADY=1 BVALID=1 BRESP=0
UVM_INFO axi_inp_monitor.sv(81) @ 535: uvm_test_top.env.inp_agt.inp_mon [AXI_B] BREADY=1 BRESP=0 BVALID=1
UVM_INFO axi_subscriber.sv(158) @ 535: uvm_test_top.env.sub [sub] [DRIVER]:INPUT RECIEVED
UVM_INFO axi_op_monitor.sv(81) @ 535: uvm_test_top.env.op_agt.op_mon [OP_B] BVALID=1 BREADY=1 BRESP=0
UVM_INFO axi_scoreboard.sv(42) @ 535: uvm_test_top.env.scb [SCB] d
UVM_INFO axi_scoreboard.sv(105) @ 535: uvm_test_top.env.scb [SCB] WRITE ADDRESS PASS: Exp_AWADDR=0 Actual_AWADDR=0
UVM_INFO axi_scoreboard.sv(110) @ 535: uvm_test_top.env.scb [SCB] WRITE DATA PASS: Exp_WDATA=3d06f57a Actual_WDATA=3d06f57a
UVM_INFO axi_scoreboard.sv(115) @ 535: uvm_test_top.env.scb [SCB] WRITE WSTRB PASS: Exp_WSTRB=d Actual_WSTRB=d
UVM_INFO axi_scoreboard.sv(120) @ 535: uvm_test_top.env.scb [SCB] WRITE BRESP PASS: Exp_BRESP=0 Actual_BRESP=0
UVM_INFO axi_driver.sv(129) @ 555: uvm_test_top.env.inp_agt.inp_drv [AXI_W] WDATA=d16265cb WSTRB=7 WVALID=1 WREADY=1
UVM_INFO axi_inp_monitor.sv(73) @ 565: uvm_test_top.env.inp_agt.inp_mon [AXI_W] WDATA=d16265cb WSTRB=7 WVALID=1 WREADY=1
UVM_INFO axi_op_monitor.sv(73) @ 565: uvm_test_top.env.op_agt.op_mon [OP_W] WVALID=1 WREADY=1 WDATA=d16265cb WSTRB=7
UVM_INFO axi_driver.sv(111) @ 605: uvm_test_top.env.inp_agt.inp_drv [AXI_AW] AWADDR=4 AWPROT=11 AWVALID=1 AWREADY=1
UVM_INFO axi_inp_monitor.sv(64) @ 615: uvm_test_top.env.inp_agt.inp_mon [AXI_AW] AWADDR=4 AWPROT=11 AWVALID=1 AWREADY=1
UVM_INFO axi_op_monitor.sv(64) @ 615: uvm_test_top.env.op_agt.op_mon [OP_AW] AWVALID=1 AWREADY=1 AWADDR=4 AWPROT=11
reg_file[0] = 3d06007a
reg_file[1] = 0e6265cb
reg_file[2] = 30004ec3
reg_file[3] = 00000000
reg_file[4] = 00000000
reg_file[5] = 00000000
reg_file[6] = 00000000
reg_file[7] = 00000000
reg_file[8] = 00000000
reg_file[9] = 00000000
reg_file[10] = 00000000
reg_file[11] = 00000000
reg_file[12] = 00000000
reg_file[13] = 00000000
reg_file[14] = 00000000
reg_file[15] = 00000000
UVM_INFO axi_driver.sv(145) @ 625: uvm_test_top.env.inp_agt.inp_drv [AXI_B] BREADY=1 BVALID=1 BRESP=0
UVM_INFO axi_inp_monitor.sv(81) @ 635: uvm_test_top.env.inp_agt.inp_mon [AXI_B] BREADY=1 BRESP=0 BVALID=1
UVM_INFO axi_subscriber.sv(158) @ 635: uvm_test_top.env.sub [sub] [DRIVER]:INPUT RECIEVED
UVM_INFO axi_op_monitor.sv(81) @ 635: uvm_test_top.env.op_agt.op_mon [OP_B] BVALID=1 BREADY=1 BRESP=0
UVM_INFO axi_scoreboard.sv(42) @ 635: uvm_test_top.env.scb [SCB] 7
UVM_INFO axi_scoreboard.sv(105) @ 635: uvm_test_top.env.scb [SCB] WRITE ADDRESS PASS: Exp_AWADDR=4 Actual_AWADDR=4
UVM_INFO axi_scoreboard.sv(110) @ 635: uvm_test_top.env.scb [SCB] WRITE DATA PASS: Exp_WDATA=d16265cb Actual_WDATA=d16265cb
UVM_INFO axi_scoreboard.sv(115) @ 635: uvm_test_top.env.scb [SCB] WRITE WSTRB PASS: Exp_WSTRB=7 Actual_WSTRB=7
UVM_INFO axi_scoreboard.sv(120) @ 635: uvm_test_top.env.scb [SCB] WRITE BRESP PASS: Exp_BRESP=0 Actual_BRESP=0
UVM_INFO axi_driver.sv(129) @ 655: uvm_test_top.env.inp_agt.inp_drv [AXI_W] WDATA=77f1c4b4 WSTRB=7 WVALID=1 WREADY=1
UVM_INFO axi_inp_monitor.sv(73) @ 665: uvm_test_top.env.inp_agt.inp_mon [AXI_W] WDATA=77f1c4b4 WSTRB=7 WVALID=1 WREADY=1
UVM_INFO axi_op_monitor.sv(73) @ 665: uvm_test_top.env.op_agt.op_mon [OP_W] WVALID=1 WREADY=1 WDATA=77f1c4b4 WSTRB=7
UVM_INFO axi_driver.sv(111) @ 705: uvm_test_top.env.inp_agt.inp_drv [AXI_AW] AWADDR=0 AWPROT=101 AWVALID=1 AWREADY=1
UVM_INFO axi_inp_monitor.sv(64) @ 715: uvm_test_top.env.inp_agt.inp_mon [AXI_AW] AWADDR=0 AWPROT=101 AWVALID=1 AWREADY=1
UVM_INFO axi_op_monitor.sv(64) @ 715: uvm_test_top.env.op_agt.op_mon [OP_AW] AWVALID=1 AWREADY=1 AWADDR=0 AWPROT=101
reg_file[0] = 3df1c4b4
reg_file[1] = 0e6265cb
reg_file[2] = 30004ec3
reg_file[3] = 00000000
reg_file[4] = 00000000
reg_file[5] = 00000000
reg_file[6] = 00000000
reg_file[7] = 00000000
reg_file[8] = 00000000
reg_file[9] = 00000000
reg_file[10] = 00000000
reg_file[11] = 00000000
reg_file[12] = 00000000
reg_file[13] = 00000000
reg_file[14] = 00000000
reg_file[15] = 00000000
UVM_INFO axi_driver.sv(145) @ 725: uvm_test_top.env.inp_agt.inp_drv [AXI_B] BREADY=1 BVALID=1 BRESP=0
UVM_INFO axi_inp_monitor.sv(81) @ 735: uvm_test_top.env.inp_agt.inp_mon [AXI_B] BREADY=1 BRESP=0 BVALID=1
UVM_INFO axi_subscriber.sv(158) @ 735: uvm_test_top.env.sub [sub] [DRIVER]:INPUT RECIEVED
UVM_INFO axi_op_monitor.sv(81) @ 735: uvm_test_top.env.op_agt.op_mon [OP_B] BVALID=1 BREADY=1 BRESP=0
UVM_INFO axi_scoreboard.sv(42) @ 735: uvm_test_top.env.scb [SCB] 7
UVM_INFO axi_scoreboard.sv(105) @ 735: uvm_test_top.env.scb [SCB] WRITE ADDRESS PASS: Exp_AWADDR=0 Actual_AWADDR=0
UVM_INFO axi_scoreboard.sv(110) @ 735: uvm_test_top.env.scb [SCB] WRITE DATA PASS: Exp_WDATA=77f1c4b4 Actual_WDATA=77f1c4b4
UVM_INFO axi_scoreboard.sv(115) @ 735: uvm_test_top.env.scb [SCB] WRITE WSTRB PASS: Exp_WSTRB=7 Actual_WSTRB=7
UVM_INFO axi_scoreboard.sv(120) @ 735: uvm_test_top.env.scb [SCB] WRITE BRESP PASS: Exp_BRESP=0 Actual_BRESP=0
UVM_INFO axi_driver.sv(129) @ 755: uvm_test_top.env.inp_agt.inp_drv [AXI_W] WDATA=a47360b9 WSTRB=6 WVALID=1 WREADY=1
UVM_INFO axi_inp_monitor.sv(73) @ 765: uvm_test_top.env.inp_agt.inp_mon [AXI_W] WDATA=a47360b9 WSTRB=6 WVALID=1 WREADY=1
UVM_INFO axi_op_monitor.sv(73) @ 765: uvm_test_top.env.op_agt.op_mon [OP_W] WVALID=1 WREADY=1 WDATA=a47360b9 WSTRB=6
UVM_INFO axi_driver.sv(111) @ 805: uvm_test_top.env.inp_agt.inp_drv [AXI_AW] AWADDR=8 AWPROT=11 AWVALID=1 AWREADY=1
UVM_INFO axi_inp_monitor.sv(64) @ 815: uvm_test_top.env.inp_agt.inp_mon [AXI_AW] AWADDR=8 AWPROT=11 AWVALID=1 AWREADY=1
UVM_INFO axi_op_monitor.sv(64) @ 815: uvm_test_top.env.op_agt.op_mon [OP_AW] AWVALID=1 AWREADY=1 AWADDR=8 AWPROT=11
reg_file[0] = 3df1c4b4
reg_file[1] = 0e6265cb
reg_file[2] = 307360c3
reg_file[3] = 00000000
reg_file[4] = 00000000
reg_file[5] = 00000000
reg_file[6] = 00000000
reg_file[7] = 00000000
reg_file[8] = 00000000
reg_file[9] = 00000000
reg_file[10] = 00000000
reg_file[11] = 00000000
reg_file[12] = 00000000
reg_file[13] = 00000000
reg_file[14] = 00000000
reg_file[15] = 00000000
UVM_INFO axi_driver.sv(145) @ 825: uvm_test_top.env.inp_agt.inp_drv [AXI_B] BREADY=1 BVALID=1 BRESP=0
UVM_INFO axi_inp_monitor.sv(81) @ 835: uvm_test_top.env.inp_agt.inp_mon [AXI_B] BREADY=1 BRESP=0 BVALID=1
UVM_INFO axi_subscriber.sv(158) @ 835: uvm_test_top.env.sub [sub] [DRIVER]:INPUT RECIEVED
UVM_INFO axi_op_monitor.sv(81) @ 835: uvm_test_top.env.op_agt.op_mon [OP_B] BVALID=1 BREADY=1 BRESP=0
UVM_INFO axi_scoreboard.sv(42) @ 835: uvm_test_top.env.scb [SCB] 6
UVM_INFO axi_scoreboard.sv(105) @ 835: uvm_test_top.env.scb [SCB] WRITE ADDRESS PASS: Exp_AWADDR=8 Actual_AWADDR=8
UVM_INFO axi_scoreboard.sv(110) @ 835: uvm_test_top.env.scb [SCB] WRITE DATA PASS: Exp_WDATA=a47360b9 Actual_WDATA=a47360b9
UVM_INFO axi_scoreboard.sv(115) @ 835: uvm_test_top.env.scb [SCB] WRITE WSTRB PASS: Exp_WSTRB=6 Actual_WSTRB=6
UVM_INFO axi_scoreboard.sv(120) @ 835: uvm_test_top.env.scb [SCB] WRITE BRESP PASS: Exp_BRESP=0 Actual_BRESP=0
UVM_INFO axi_driver.sv(129) @ 855: uvm_test_top.env.inp_agt.inp_drv [AXI_W] WDATA=288867da WSTRB=d WVALID=1 WREADY=1
UVM_INFO axi_inp_monitor.sv(73) @ 865: uvm_test_top.env.inp_agt.inp_mon [AXI_W] WDATA=288867da WSTRB=d WVALID=1 WREADY=1
UVM_INFO axi_op_monitor.sv(73) @ 865: uvm_test_top.env.op_agt.op_mon [OP_W] WVALID=1 WREADY=1 WDATA=288867da WSTRB=d
UVM_INFO axi_driver.sv(111) @ 905: uvm_test_top.env.inp_agt.inp_drv [AXI_AW] AWADDR=4 AWPROT=110 AWVALID=1 AWREADY=1
UVM_INFO axi_inp_monitor.sv(64) @ 915: uvm_test_top.env.inp_agt.inp_mon [AXI_AW] AWADDR=4 AWPROT=110 AWVALID=1 AWREADY=1
UVM_INFO axi_op_monitor.sv(64) @ 915: uvm_test_top.env.op_agt.op_mon [OP_AW] AWVALID=1 AWREADY=1 AWADDR=4 AWPROT=110
reg_file[0] = 3df1c4b4
reg_file[1] = 288865da
reg_file[2] = 307360c3
reg_file[3] = 00000000
reg_file[4] = 00000000
reg_file[5] = 00000000
reg_file[6] = 00000000
reg_file[7] = 00000000
reg_file[8] = 00000000
reg_file[9] = 00000000
reg_file[10] = 00000000
reg_file[11] = 00000000
reg_file[12] = 00000000
reg_file[13] = 00000000
reg_file[14] = 00000000
reg_file[15] = 00000000
UVM_INFO axi_driver.sv(145) @ 925: uvm_test_top.env.inp_agt.inp_drv [AXI_B] BREADY=1 BVALID=1 BRESP=0
UVM_INFO axi_inp_monitor.sv(81) @ 935: uvm_test_top.env.inp_agt.inp_mon [AXI_B] BREADY=1 BRESP=0 BVALID=1
UVM_INFO axi_subscriber.sv(158) @ 935: uvm_test_top.env.sub [sub] [DRIVER]:INPUT RECIEVED
UVM_INFO axi_op_monitor.sv(81) @ 935: uvm_test_top.env.op_agt.op_mon [OP_B] BVALID=1 BREADY=1 BRESP=0
UVM_INFO axi_scoreboard.sv(42) @ 935: uvm_test_top.env.scb [SCB] d
UVM_INFO axi_scoreboard.sv(105) @ 935: uvm_test_top.env.scb [SCB] WRITE ADDRESS PASS: Exp_AWADDR=4 Actual_AWADDR=4
UVM_INFO axi_scoreboard.sv(110) @ 935: uvm_test_top.env.scb [SCB] WRITE DATA PASS: Exp_WDATA=288867da Actual_WDATA=288867da
UVM_INFO axi_scoreboard.sv(115) @ 935: uvm_test_top.env.scb [SCB] WRITE WSTRB PASS: Exp_WSTRB=d Actual_WSTRB=d
UVM_INFO axi_scoreboard.sv(120) @ 935: uvm_test_top.env.scb [SCB] WRITE BRESP PASS: Exp_BRESP=0 Actual_BRESP=0
UVM_INFO axi_driver.sv(129) @ 955: uvm_test_top.env.inp_agt.inp_drv [AXI_W] WDATA=9676d4f3 WSTRB=2 WVALID=1 WREADY=1
UVM_INFO axi_inp_monitor.sv(73) @ 965: uvm_test_top.env.inp_agt.inp_mon [AXI_W] WDATA=9676d4f3 WSTRB=2 WVALID=1 WREADY=1
UVM_INFO axi_op_monitor.sv(73) @ 965: uvm_test_top.env.op_agt.op_mon [OP_W] WVALID=1 WREADY=1 WDATA=9676d4f3 WSTRB=2
UVM_INFO axi_driver.sv(111) @ 1005: uvm_test_top.env.inp_agt.inp_drv [AXI_AW] AWADDR=8 AWPROT=0 AWVALID=1 AWREADY=1
UVM_INFO axi_inp_monitor.sv(64) @ 1015: uvm_test_top.env.inp_agt.inp_mon [AXI_AW] AWADDR=8 AWPROT=0 AWVALID=1 AWREADY=1
UVM_INFO axi_op_monitor.sv(64) @ 1015: uvm_test_top.env.op_agt.op_mon [OP_AW] AWVALID=1 AWREADY=1 AWADDR=8 AWPROT=0
reg_file[0] = 3df1c4b4
reg_file[1] = 288865da
reg_file[2] = 3073d4c3
reg_file[3] = 00000000
reg_file[4] = 00000000
reg_file[5] = 00000000
reg_file[6] = 00000000
reg_file[7] = 00000000
reg_file[8] = 00000000
reg_file[9] = 00000000
reg_file[10] = 00000000
reg_file[11] = 00000000
reg_file[12] = 00000000
reg_file[13] = 00000000
reg_file[14] = 00000000
reg_file[15] = 00000000
UVM_INFO axi_driver.sv(145) @ 1025: uvm_test_top.env.inp_agt.inp_drv [AXI_B] BREADY=1 BVALID=1 BRESP=0
UVM_INFO axi_inp_monitor.sv(81) @ 1035: uvm_test_top.env.inp_agt.inp_mon [AXI_B] BREADY=1 BRESP=0 BVALID=1
UVM_INFO axi_subscriber.sv(158) @ 1035: uvm_test_top.env.sub [sub] [DRIVER]:INPUT RECIEVED
UVM_INFO axi_op_monitor.sv(81) @ 1035: uvm_test_top.env.op_agt.op_mon [OP_B] BVALID=1 BREADY=1 BRESP=0
UVM_INFO axi_scoreboard.sv(42) @ 1035: uvm_test_top.env.scb [SCB] 2
UVM_INFO axi_scoreboard.sv(105) @ 1035: uvm_test_top.env.scb [SCB] WRITE ADDRESS PASS: Exp_AWADDR=8 Actual_AWADDR=8
UVM_INFO axi_scoreboard.sv(110) @ 1035: uvm_test_top.env.scb [SCB] WRITE DATA PASS: Exp_WDATA=9676d4f3 Actual_WDATA=9676d4f3
UVM_INFO axi_scoreboard.sv(115) @ 1035: uvm_test_top.env.scb [SCB] WRITE WSTRB PASS: Exp_WSTRB=2 Actual_WSTRB=2
UVM_INFO axi_scoreboard.sv(120) @ 1035: uvm_test_top.env.scb [SCB] WRITE BRESP PASS: Exp_BRESP=0 Actual_BRESP=0
UVM_INFO axi_driver.sv(129) @ 1055: uvm_test_top.env.inp_agt.inp_drv [AXI_W] WDATA=cbfcadef WSTRB=d WVALID=1 WREADY=1
UVM_INFO axi_inp_monitor.sv(73) @ 1065: uvm_test_top.env.inp_agt.inp_mon [AXI_W] WDATA=cbfcadef WSTRB=d WVALID=1 WREADY=1
UVM_INFO axi_op_monitor.sv(73) @ 1065: uvm_test_top.env.op_agt.op_mon [OP_W] WVALID=1 WREADY=1 WDATA=cbfcadef WSTRB=d
UVM_INFO axi_driver.sv(111) @ 1105: uvm_test_top.env.inp_agt.inp_drv [AXI_AW] AWADDR=0 AWPROT=101 AWVALID=1 AWREADY=1
UVM_INFO axi_inp_monitor.sv(64) @ 1115: uvm_test_top.env.inp_agt.inp_mon [AXI_AW] AWADDR=0 AWPROT=101 AWVALID=1 AWREADY=1
UVM_INFO axi_op_monitor.sv(64) @ 1115: uvm_test_top.env.op_agt.op_mon [OP_AW] AWVALID=1 AWREADY=1 AWADDR=0 AWPROT=101
reg_file[0] = cbfcc4ef
reg_file[1] = 288865da
reg_file[2] = 3073d4c3
reg_file[3] = 00000000
reg_file[4] = 00000000
reg_file[5] = 00000000
reg_file[6] = 00000000
reg_file[7] = 00000000
reg_file[8] = 00000000
reg_file[9] = 00000000
reg_file[10] = 00000000
reg_file[11] = 00000000
reg_file[12] = 00000000
reg_file[13] = 00000000
reg_file[14] = 00000000
reg_file[15] = 00000000
UVM_INFO axi_driver.sv(145) @ 1125: uvm_test_top.env.inp_agt.inp_drv [AXI_B] BREADY=1 BVALID=1 BRESP=0
UVM_INFO axi_inp_monitor.sv(81) @ 1135: uvm_test_top.env.inp_agt.inp_mon [AXI_B] BREADY=1 BRESP=0 BVALID=1
UVM_INFO axi_subscriber.sv(158) @ 1135: uvm_test_top.env.sub [sub] [DRIVER]:INPUT RECIEVED
UVM_INFO axi_op_monitor.sv(81) @ 1135: uvm_test_top.env.op_agt.op_mon [OP_B] BVALID=1 BREADY=1 BRESP=0
UVM_INFO axi_scoreboard.sv(42) @ 1135: uvm_test_top.env.scb [SCB] d
UVM_INFO axi_scoreboard.sv(105) @ 1135: uvm_test_top.env.scb [SCB] WRITE ADDRESS PASS: Exp_AWADDR=0 Actual_AWADDR=0
UVM_INFO axi_scoreboard.sv(110) @ 1135: uvm_test_top.env.scb [SCB] WRITE DATA PASS: Exp_WDATA=cbfcadef Actual_WDATA=cbfcadef
UVM_INFO axi_scoreboard.sv(115) @ 1135: uvm_test_top.env.scb [SCB] WRITE WSTRB PASS: Exp_WSTRB=d Actual_WSTRB=d
UVM_INFO axi_scoreboard.sv(120) @ 1135: uvm_test_top.env.scb [SCB] WRITE BRESP PASS: Exp_BRESP=0 Actual_BRESP=0
UVM_INFO axi_driver.sv(129) @ 1155: uvm_test_top.env.inp_agt.inp_drv [AXI_W] WDATA=87ce8b7 WSTRB=1 WVALID=1 WREADY=1
UVM_INFO axi_inp_monitor.sv(73) @ 1165: uvm_test_top.env.inp_agt.inp_mon [AXI_W] WDATA=87ce8b7 WSTRB=1 WVALID=1 WREADY=1
UVM_INFO axi_op_monitor.sv(73) @ 1165: uvm_test_top.env.op_agt.op_mon [OP_W] WVALID=1 WREADY=1 WDATA=87ce8b7 WSTRB=1
UVM_INFO axi_driver.sv(111) @ 1205: uvm_test_top.env.inp_agt.inp_drv [AXI_AW] AWADDR=8 AWPROT=110 AWVALID=1 AWREADY=1
UVM_INFO axi_inp_monitor.sv(64) @ 1215: uvm_test_top.env.inp_agt.inp_mon [AXI_AW] AWADDR=8 AWPROT=110 AWVALID=1 AWREADY=1
UVM_INFO axi_op_monitor.sv(64) @ 1215: uvm_test_top.env.op_agt.op_mon [OP_AW] AWVALID=1 AWREADY=1 AWADDR=8 AWPROT=110
reg_file[0] = cbfcc4ef
reg_file[1] = 288865da
reg_file[2] = 3073d4b7
reg_file[3] = 00000000
reg_file[4] = 00000000
reg_file[5] = 00000000
reg_file[6] = 00000000
reg_file[7] = 00000000
reg_file[8] = 00000000
reg_file[9] = 00000000
reg_file[10] = 00000000
reg_file[11] = 00000000
reg_file[12] = 00000000
reg_file[13] = 00000000
reg_file[14] = 00000000
reg_file[15] = 00000000
UVM_INFO axi_driver.sv(145) @ 1225: uvm_test_top.env.inp_agt.inp_drv [AXI_B] BREADY=1 BVALID=1 BRESP=0
UVM_INFO axi_inp_monitor.sv(81) @ 1235: uvm_test_top.env.inp_agt.inp_mon [AXI_B] BREADY=1 BRESP=0 BVALID=1
UVM_INFO axi_subscriber.sv(158) @ 1235: uvm_test_top.env.sub [sub] [DRIVER]:INPUT RECIEVED
UVM_INFO axi_op_monitor.sv(81) @ 1235: uvm_test_top.env.op_agt.op_mon [OP_B] BVALID=1 BREADY=1 BRESP=0
UVM_INFO axi_scoreboard.sv(42) @ 1235: uvm_test_top.env.scb [SCB] 1
UVM_INFO axi_scoreboard.sv(105) @ 1235: uvm_test_top.env.scb [SCB] WRITE ADDRESS PASS: Exp_AWADDR=8 Actual_AWADDR=8
UVM_INFO axi_scoreboard.sv(110) @ 1235: uvm_test_top.env.scb [SCB] WRITE DATA PASS: Exp_WDATA=87ce8b7 Actual_WDATA=87ce8b7
UVM_INFO axi_scoreboard.sv(115) @ 1235: uvm_test_top.env.scb [SCB] WRITE WSTRB PASS: Exp_WSTRB=1 Actual_WSTRB=1
UVM_INFO axi_scoreboard.sv(120) @ 1235: uvm_test_top.env.scb [SCB] WRITE BRESP PASS: Exp_BRESP=0 Actual_BRESP=0
UVM_INFO axi_driver.sv(129) @ 1255: uvm_test_top.env.inp_agt.inp_drv [AXI_W] WDATA=b9ad14a7 WSTRB=a WVALID=1 WREADY=1
UVM_INFO axi_inp_monitor.sv(73) @ 1265: uvm_test_top.env.inp_agt.inp_mon [AXI_W] WDATA=b9ad14a7 WSTRB=a WVALID=1 WREADY=1
UVM_INFO axi_op_monitor.sv(73) @ 1265: uvm_test_top.env.op_agt.op_mon [OP_W] WVALID=1 WREADY=1 WDATA=b9ad14a7 WSTRB=a
UVM_INFO axi_driver.sv(111) @ 1305: uvm_test_top.env.inp_agt.inp_drv [AXI_AW] AWADDR=0 AWPROT=111 AWVALID=1 AWREADY=1
UVM_INFO axi_inp_monitor.sv(64) @ 1315: uvm_test_top.env.inp_agt.inp_mon [AXI_AW] AWADDR=0 AWPROT=111 AWVALID=1 AWREADY=1
UVM_INFO axi_op_monitor.sv(64) @ 1315: uvm_test_top.env.op_agt.op_mon [OP_AW] AWVALID=1 AWREADY=1 AWADDR=0 AWPROT=111
reg_file[0] = b9fc14ef
reg_file[1] = 288865da
reg_file[2] = 3073d4b7
reg_file[3] = 00000000
reg_file[4] = 00000000
reg_file[5] = 00000000
reg_file[6] = 00000000
reg_file[7] = 00000000
reg_file[8] = 00000000
reg_file[9] = 00000000
reg_file[10] = 00000000
reg_file[11] = 00000000
reg_file[12] = 00000000
reg_file[13] = 00000000
reg_file[14] = 00000000
reg_file[15] = 00000000
UVM_INFO axi_driver.sv(145) @ 1325: uvm_test_top.env.inp_agt.inp_drv [AXI_B] BREADY=1 BVALID=1 BRESP=0
UVM_INFO axi_inp_monitor.sv(81) @ 1335: uvm_test_top.env.inp_agt.inp_mon [AXI_B] BREADY=1 BRESP=0 BVALID=1
UVM_INFO axi_subscriber.sv(158) @ 1335: uvm_test_top.env.sub [sub] [DRIVER]:INPUT RECIEVED
UVM_INFO axi_op_monitor.sv(81) @ 1335: uvm_test_top.env.op_agt.op_mon [OP_B] BVALID=1 BREADY=1 BRESP=0
UVM_INFO axi_scoreboard.sv(42) @ 1335: uvm_test_top.env.scb [SCB] a
UVM_INFO axi_scoreboard.sv(105) @ 1335: uvm_test_top.env.scb [SCB] WRITE ADDRESS PASS: Exp_AWADDR=0 Actual_AWADDR=0
UVM_INFO axi_scoreboard.sv(110) @ 1335: uvm_test_top.env.scb [SCB] WRITE DATA PASS: Exp_WDATA=b9ad14a7 Actual_WDATA=b9ad14a7
UVM_INFO axi_scoreboard.sv(115) @ 1335: uvm_test_top.env.scb [SCB] WRITE WSTRB PASS: Exp_WSTRB=a Actual_WSTRB=a
UVM_INFO axi_scoreboard.sv(120) @ 1335: uvm_test_top.env.scb [SCB] WRITE BRESP PASS: Exp_BRESP=0 Actual_BRESP=0
UVM_INFO axi_driver.sv(129) @ 1355: uvm_test_top.env.inp_agt.inp_drv [AXI_W] WDATA=a66f7024 WSTRB=f WVALID=1 WREADY=1
UVM_INFO axi_inp_monitor.sv(73) @ 1365: uvm_test_top.env.inp_agt.inp_mon [AXI_W] WDATA=a66f7024 WSTRB=f WVALID=1 WREADY=1
UVM_INFO axi_op_monitor.sv(73) @ 1365: uvm_test_top.env.op_agt.op_mon [OP_W] WVALID=1 WREADY=1 WDATA=a66f7024 WSTRB=f
UVM_INFO axi_driver.sv(111) @ 1405: uvm_test_top.env.inp_agt.inp_drv [AXI_AW] AWADDR=4 AWPROT=101 AWVALID=1 AWREADY=1
UVM_INFO axi_inp_monitor.sv(64) @ 1415: uvm_test_top.env.inp_agt.inp_mon [AXI_AW] AWADDR=4 AWPROT=101 AWVALID=1 AWREADY=1
UVM_INFO axi_op_monitor.sv(64) @ 1415: uvm_test_top.env.op_agt.op_mon [OP_AW] AWVALID=1 AWREADY=1 AWADDR=4 AWPROT=101
reg_file[0] = b9fc14ef
reg_file[1] = a66f7024
reg_file[2] = 3073d4b7
reg_file[3] = 00000000
reg_file[4] = 00000000
reg_file[5] = 00000000
reg_file[6] = 00000000
reg_file[7] = 00000000
reg_file[8] = 00000000
reg_file[9] = 00000000
reg_file[10] = 00000000
reg_file[11] = 00000000
reg_file[12] = 00000000
reg_file[13] = 00000000
reg_file[14] = 00000000
reg_file[15] = 00000000
UVM_INFO axi_driver.sv(145) @ 1425: uvm_test_top.env.inp_agt.inp_drv [AXI_B] BREADY=1 BVALID=1 BRESP=0
UVM_INFO axi_inp_monitor.sv(81) @ 1435: uvm_test_top.env.inp_agt.inp_mon [AXI_B] BREADY=1 BRESP=0 BVALID=1
UVM_INFO axi_subscriber.sv(158) @ 1435: uvm_test_top.env.sub [sub] [DRIVER]:INPUT RECIEVED
UVM_INFO axi_op_monitor.sv(81) @ 1435: uvm_test_top.env.op_agt.op_mon [OP_B] BVALID=1 BREADY=1 BRESP=0
UVM_INFO axi_scoreboard.sv(42) @ 1435: uvm_test_top.env.scb [SCB] f
UVM_INFO axi_scoreboard.sv(105) @ 1435: uvm_test_top.env.scb [SCB] WRITE ADDRESS PASS: Exp_AWADDR=4 Actual_AWADDR=4
UVM_INFO axi_scoreboard.sv(110) @ 1435: uvm_test_top.env.scb [SCB] WRITE DATA PASS: Exp_WDATA=a66f7024 Actual_WDATA=a66f7024
UVM_INFO axi_scoreboard.sv(115) @ 1435: uvm_test_top.env.scb [SCB] WRITE WSTRB PASS: Exp_WSTRB=f Actual_WSTRB=f
UVM_INFO axi_scoreboard.sv(120) @ 1435: uvm_test_top.env.scb [SCB] WRITE BRESP PASS: Exp_BRESP=0 Actual_BRESP=0
UVM_INFO axi_driver.sv(129) @ 1455: uvm_test_top.env.inp_agt.inp_drv [AXI_W] WDATA=99c29ddf WSTRB=4 WVALID=1 WREADY=1
UVM_INFO axi_inp_monitor.sv(73) @ 1465: uvm_test_top.env.inp_agt.inp_mon [AXI_W] WDATA=99c29ddf WSTRB=4 WVALID=1 WREADY=1
UVM_INFO axi_op_monitor.sv(73) @ 1465: uvm_test_top.env.op_agt.op_mon [OP_W] WVALID=1 WREADY=1 WDATA=99c29ddf WSTRB=4
UVM_INFO axi_driver.sv(111) @ 1505: uvm_test_top.env.inp_agt.inp_drv [AXI_AW] AWADDR=4 AWPROT=111 AWVALID=1 AWREADY=1
UVM_INFO axi_inp_monitor.sv(64) @ 1515: uvm_test_top.env.inp_agt.inp_mon [AXI_AW] AWADDR=4 AWPROT=111 AWVALID=1 AWREADY=1
UVM_INFO axi_op_monitor.sv(64) @ 1515: uvm_test_top.env.op_agt.op_mon [OP_AW] AWVALID=1 AWREADY=1 AWADDR=4 AWPROT=111
reg_file[0] = b9fc14ef
reg_file[1] = a6c27024
reg_file[2] = 3073d4b7
reg_file[3] = 00000000
reg_file[4] = 00000000
reg_file[5] = 00000000
reg_file[6] = 00000000
reg_file[7] = 00000000
reg_file[8] = 00000000
reg_file[9] = 00000000
reg_file[10] = 00000000
reg_file[11] = 00000000
reg_file[12] = 00000000
reg_file[13] = 00000000
reg_file[14] = 00000000
reg_file[15] = 00000000
UVM_INFO axi_driver.sv(145) @ 1525: uvm_test_top.env.inp_agt.inp_drv [AXI_B] BREADY=1 BVALID=1 BRESP=0
UVM_INFO axi_inp_monitor.sv(81) @ 1535: uvm_test_top.env.inp_agt.inp_mon [AXI_B] BREADY=1 BRESP=0 BVALID=1
UVM_INFO axi_subscriber.sv(158) @ 1535: uvm_test_top.env.sub [sub] [DRIVER]:INPUT RECIEVED
UVM_INFO axi_op_monitor.sv(81) @ 1535: uvm_test_top.env.op_agt.op_mon [OP_B] BVALID=1 BREADY=1 BRESP=0
UVM_INFO axi_scoreboard.sv(42) @ 1535: uvm_test_top.env.scb [SCB] 4
UVM_INFO axi_scoreboard.sv(105) @ 1535: uvm_test_top.env.scb [SCB] WRITE ADDRESS PASS: Exp_AWADDR=4 Actual_AWADDR=4
UVM_INFO axi_scoreboard.sv(110) @ 1535: uvm_test_top.env.scb [SCB] WRITE DATA PASS: Exp_WDATA=99c29ddf Actual_WDATA=99c29ddf
UVM_INFO axi_scoreboard.sv(115) @ 1535: uvm_test_top.env.scb [SCB] WRITE WSTRB PASS: Exp_WSTRB=4 Actual_WSTRB=4
UVM_INFO axi_scoreboard.sv(120) @ 1535: uvm_test_top.env.scb [SCB] WRITE BRESP PASS: Exp_BRESP=0 Actual_BRESP=0
UVM_INFO axi_driver.sv(129) @ 1555: uvm_test_top.env.inp_agt.inp_drv [AXI_W] WDATA=672c5704 WSTRB=a WVALID=1 WREADY=1
UVM_INFO axi_inp_monitor.sv(73) @ 1565: uvm_test_top.env.inp_agt.inp_mon [AXI_W] WDATA=672c5704 WSTRB=a WVALID=1 WREADY=1
UVM_INFO axi_op_monitor.sv(73) @ 1565: uvm_test_top.env.op_agt.op_mon [OP_W] WVALID=1 WREADY=1 WDATA=672c5704 WSTRB=a
UVM_INFO axi_driver.sv(111) @ 1605: uvm_test_top.env.inp_agt.inp_drv [AXI_AW] AWADDR=8 AWPROT=101 AWVALID=1 AWREADY=1
UVM_INFO axi_inp_monitor.sv(64) @ 1615: uvm_test_top.env.inp_agt.inp_mon [AXI_AW] AWADDR=8 AWPROT=101 AWVALID=1 AWREADY=1
UVM_INFO axi_op_monitor.sv(64) @ 1615: uvm_test_top.env.op_agt.op_mon [OP_AW] AWVALID=1 AWREADY=1 AWADDR=8 AWPROT=101
reg_file[0] = b9fc14ef
reg_file[1] = a6c27024
reg_file[2] = 677357b7
reg_file[3] = 00000000
reg_file[4] = 00000000
reg_file[5] = 00000000
reg_file[6] = 00000000
reg_file[7] = 00000000
reg_file[8] = 00000000
reg_file[9] = 00000000
reg_file[10] = 00000000
reg_file[11] = 00000000
reg_file[12] = 00000000
reg_file[13] = 00000000
reg_file[14] = 00000000
reg_file[15] = 00000000
UVM_INFO axi_driver.sv(145) @ 1625: uvm_test_top.env.inp_agt.inp_drv [AXI_B] BREADY=1 BVALID=1 BRESP=0
UVM_INFO axi_inp_monitor.sv(81) @ 1635: uvm_test_top.env.inp_agt.inp_mon [AXI_B] BREADY=1 BRESP=0 BVALID=1
UVM_INFO axi_subscriber.sv(158) @ 1635: uvm_test_top.env.sub [sub] [DRIVER]:INPUT RECIEVED
UVM_INFO axi_op_monitor.sv(81) @ 1635: uvm_test_top.env.op_agt.op_mon [OP_B] BVALID=1 BREADY=1 BRESP=0
UVM_INFO axi_scoreboard.sv(42) @ 1635: uvm_test_top.env.scb [SCB] a
UVM_INFO axi_scoreboard.sv(105) @ 1635: uvm_test_top.env.scb [SCB] WRITE ADDRESS PASS: Exp_AWADDR=8 Actual_AWADDR=8
UVM_INFO axi_scoreboard.sv(110) @ 1635: uvm_test_top.env.scb [SCB] WRITE DATA PASS: Exp_WDATA=672c5704 Actual_WDATA=672c5704
UVM_INFO axi_scoreboard.sv(115) @ 1635: uvm_test_top.env.scb [SCB] WRITE WSTRB PASS: Exp_WSTRB=a Actual_WSTRB=a
UVM_INFO axi_scoreboard.sv(120) @ 1635: uvm_test_top.env.scb [SCB] WRITE BRESP PASS: Exp_BRESP=0 Actual_BRESP=0
UVM_INFO axi_driver.sv(129) @ 1655: uvm_test_top.env.inp_agt.inp_drv [AXI_W] WDATA=cf74acd WSTRB=c WVALID=1 WREADY=1
UVM_INFO axi_inp_monitor.sv(73) @ 1665: uvm_test_top.env.inp_agt.inp_mon [AXI_W] WDATA=cf74acd WSTRB=c WVALID=1 WREADY=1
UVM_INFO axi_op_monitor.sv(73) @ 1665: uvm_test_top.env.op_agt.op_mon [OP_W] WVALID=1 WREADY=1 WDATA=cf74acd WSTRB=c
UVM_INFO axi_driver.sv(111) @ 1705: uvm_test_top.env.inp_agt.inp_drv [AXI_AW] AWADDR=8 AWPROT=101 AWVALID=1 AWREADY=1
UVM_INFO axi_inp_monitor.sv(64) @ 1715: uvm_test_top.env.inp_agt.inp_mon [AXI_AW] AWADDR=8 AWPROT=101 AWVALID=1 AWREADY=1
UVM_INFO axi_op_monitor.sv(64) @ 1715: uvm_test_top.env.op_agt.op_mon [OP_AW] AWVALID=1 AWREADY=1 AWADDR=8 AWPROT=101
reg_file[0] = b9fc14ef
reg_file[1] = a6c27024
reg_file[2] = 0cf757b7
reg_file[3] = 00000000
reg_file[4] = 00000000
reg_file[5] = 00000000
reg_file[6] = 00000000
reg_file[7] = 00000000
reg_file[8] = 00000000
reg_file[9] = 00000000
reg_file[10] = 00000000
reg_file[11] = 00000000
reg_file[12] = 00000000
reg_file[13] = 00000000
reg_file[14] = 00000000
reg_file[15] = 00000000
UVM_INFO axi_driver.sv(145) @ 1725: uvm_test_top.env.inp_agt.inp_drv [AXI_B] BREADY=1 BVALID=1 BRESP=0
UVM_INFO axi_inp_monitor.sv(81) @ 1735: uvm_test_top.env.inp_agt.inp_mon [AXI_B] BREADY=1 BRESP=0 BVALID=1
UVM_INFO axi_subscriber.sv(158) @ 1735: uvm_test_top.env.sub [sub] [DRIVER]:INPUT RECIEVED
UVM_INFO axi_op_monitor.sv(81) @ 1735: uvm_test_top.env.op_agt.op_mon [OP_B] BVALID=1 BREADY=1 BRESP=0
UVM_INFO axi_scoreboard.sv(42) @ 1735: uvm_test_top.env.scb [SCB] c
UVM_INFO axi_scoreboard.sv(105) @ 1735: uvm_test_top.env.scb [SCB] WRITE ADDRESS PASS: Exp_AWADDR=8 Actual_AWADDR=8
UVM_INFO axi_scoreboard.sv(110) @ 1735: uvm_test_top.env.scb [SCB] WRITE DATA PASS: Exp_WDATA=cf74acd Actual_WDATA=cf74acd
UVM_INFO axi_scoreboard.sv(115) @ 1735: uvm_test_top.env.scb [SCB] WRITE WSTRB PASS: Exp_WSTRB=c Actual_WSTRB=c
UVM_INFO axi_scoreboard.sv(120) @ 1735: uvm_test_top.env.scb [SCB] WRITE BRESP PASS: Exp_BRESP=0 Actual_BRESP=0
UVM_INFO axi_driver.sv(129) @ 1755: uvm_test_top.env.inp_agt.inp_drv [AXI_W] WDATA=c4db524f WSTRB=f WVALID=1 WREADY=1
UVM_INFO axi_inp_monitor.sv(73) @ 1765: uvm_test_top.env.inp_agt.inp_mon [AXI_W] WDATA=c4db524f WSTRB=f WVALID=1 WREADY=1
UVM_INFO axi_op_monitor.sv(73) @ 1765: uvm_test_top.env.op_agt.op_mon [OP_W] WVALID=1 WREADY=1 WDATA=c4db524f WSTRB=f
UVM_INFO axi_driver.sv(111) @ 1805: uvm_test_top.env.inp_agt.inp_drv [AXI_AW] AWADDR=0 AWPROT=10 AWVALID=1 AWREADY=1
UVM_INFO axi_inp_monitor.sv(64) @ 1815: uvm_test_top.env.inp_agt.inp_mon [AXI_AW] AWADDR=0 AWPROT=10 AWVALID=1 AWREADY=1
UVM_INFO axi_op_monitor.sv(64) @ 1815: uvm_test_top.env.op_agt.op_mon [OP_AW] AWVALID=1 AWREADY=1 AWADDR=0 AWPROT=10
reg_file[0] = c4db524f
reg_file[1] = a6c27024
reg_file[2] = 0cf757b7
reg_file[3] = 00000000
reg_file[4] = 00000000
reg_file[5] = 00000000
reg_file[6] = 00000000
reg_file[7] = 00000000
reg_file[8] = 00000000
reg_file[9] = 00000000
reg_file[10] = 00000000
reg_file[11] = 00000000
reg_file[12] = 00000000
reg_file[13] = 00000000
reg_file[14] = 00000000
reg_file[15] = 00000000
UVM_INFO axi_driver.sv(145) @ 1825: uvm_test_top.env.inp_agt.inp_drv [AXI_B] BREADY=1 BVALID=1 BRESP=0
UVM_INFO axi_inp_monitor.sv(81) @ 1835: uvm_test_top.env.inp_agt.inp_mon [AXI_B] BREADY=1 BRESP=0 BVALID=1
UVM_INFO axi_subscriber.sv(158) @ 1835: uvm_test_top.env.sub [sub] [DRIVER]:INPUT RECIEVED
UVM_INFO axi_op_monitor.sv(81) @ 1835: uvm_test_top.env.op_agt.op_mon [OP_B] BVALID=1 BREADY=1 BRESP=0
UVM_INFO axi_scoreboard.sv(42) @ 1835: uvm_test_top.env.scb [SCB] f
UVM_INFO axi_scoreboard.sv(105) @ 1835: uvm_test_top.env.scb [SCB] WRITE ADDRESS PASS: Exp_AWADDR=0 Actual_AWADDR=0
UVM_INFO axi_scoreboard.sv(110) @ 1835: uvm_test_top.env.scb [SCB] WRITE DATA PASS: Exp_WDATA=c4db524f Actual_WDATA=c4db524f
UVM_INFO axi_scoreboard.sv(115) @ 1835: uvm_test_top.env.scb [SCB] WRITE WSTRB PASS: Exp_WSTRB=f Actual_WSTRB=f
UVM_INFO axi_scoreboard.sv(120) @ 1835: uvm_test_top.env.scb [SCB] WRITE BRESP PASS: Exp_BRESP=0 Actual_BRESP=0
UVM_INFO axi_driver.sv(129) @ 1855: uvm_test_top.env.inp_agt.inp_drv [AXI_W] WDATA=68c80b5 WSTRB=c WVALID=1 WREADY=1
UVM_INFO axi_inp_monitor.sv(73) @ 1865: uvm_test_top.env.inp_agt.inp_mon [AXI_W] WDATA=68c80b5 WSTRB=c WVALID=1 WREADY=1
UVM_INFO axi_op_monitor.sv(73) @ 1865: uvm_test_top.env.op_agt.op_mon [OP_W] WVALID=1 WREADY=1 WDATA=68c80b5 WSTRB=c
UVM_INFO axi_driver.sv(111) @ 1905: uvm_test_top.env.inp_agt.inp_drv [AXI_AW] AWADDR=4 AWPROT=110 AWVALID=1 AWREADY=1
UVM_INFO axi_inp_monitor.sv(64) @ 1915: uvm_test_top.env.inp_agt.inp_mon [AXI_AW] AWADDR=4 AWPROT=110 AWVALID=1 AWREADY=1
UVM_INFO axi_op_monitor.sv(64) @ 1915: uvm_test_top.env.op_agt.op_mon [OP_AW] AWVALID=1 AWREADY=1 AWADDR=4 AWPROT=110
reg_file[0] = c4db524f
reg_file[1] = 068c7024
reg_file[2] = 0cf757b7
reg_file[3] = 00000000
reg_file[4] = 00000000
reg_file[5] = 00000000
reg_file[6] = 00000000
reg_file[7] = 00000000
reg_file[8] = 00000000
reg_file[9] = 00000000
reg_file[10] = 00000000
reg_file[11] = 00000000
reg_file[12] = 00000000
reg_file[13] = 00000000
reg_file[14] = 00000000
reg_file[15] = 00000000
UVM_INFO axi_driver.sv(145) @ 1925: uvm_test_top.env.inp_agt.inp_drv [AXI_B] BREADY=1 BVALID=1 BRESP=0
UVM_INFO axi_inp_monitor.sv(81) @ 1935: uvm_test_top.env.inp_agt.inp_mon [AXI_B] BREADY=1 BRESP=0 BVALID=1
UVM_INFO axi_subscriber.sv(158) @ 1935: uvm_test_top.env.sub [sub] [DRIVER]:INPUT RECIEVED
UVM_INFO axi_op_monitor.sv(81) @ 1935: uvm_test_top.env.op_agt.op_mon [OP_B] BVALID=1 BREADY=1 BRESP=0
UVM_INFO axi_scoreboard.sv(42) @ 1935: uvm_test_top.env.scb [SCB] c
UVM_INFO axi_scoreboard.sv(105) @ 1935: uvm_test_top.env.scb [SCB] WRITE ADDRESS PASS: Exp_AWADDR=4 Actual_AWADDR=4
UVM_INFO axi_scoreboard.sv(110) @ 1935: uvm_test_top.env.scb [SCB] WRITE DATA PASS: Exp_WDATA=68c80b5 Actual_WDATA=68c80b5
UVM_INFO axi_scoreboard.sv(115) @ 1935: uvm_test_top.env.scb [SCB] WRITE WSTRB PASS: Exp_WSTRB=c Actual_WSTRB=c
UVM_INFO axi_scoreboard.sv(120) @ 1935: uvm_test_top.env.scb [SCB] WRITE BRESP PASS: Exp_BRESP=0 Actual_BRESP=0
UVM_INFO axi_driver.sv(129) @ 1955: uvm_test_top.env.inp_agt.inp_drv [AXI_W] WDATA=5b3da581 WSTRB=e WVALID=1 WREADY=1
UVM_INFO axi_inp_monitor.sv(73) @ 1965: uvm_test_top.env.inp_agt.inp_mon [AXI_W] WDATA=5b3da581 WSTRB=e WVALID=1 WREADY=1
UVM_INFO axi_op_monitor.sv(73) @ 1965: uvm_test_top.env.op_agt.op_mon [OP_W] WVALID=1 WREADY=1 WDATA=5b3da581 WSTRB=e
UVM_INFO axi_driver.sv(111) @ 2005: uvm_test_top.env.inp_agt.inp_drv [AXI_AW] AWADDR=0 AWPROT=1 AWVALID=1 AWREADY=1
UVM_INFO axi_inp_monitor.sv(64) @ 2015: uvm_test_top.env.inp_agt.inp_mon [AXI_AW] AWADDR=0 AWPROT=1 AWVALID=1 AWREADY=1
UVM_INFO axi_op_monitor.sv(64) @ 2015: uvm_test_top.env.op_agt.op_mon [OP_AW] AWVALID=1 AWREADY=1 AWADDR=0 AWPROT=1
reg_file[0] = 5b3da54f
reg_file[1] = 068c7024
reg_file[2] = 0cf757b7
reg_file[3] = 00000000
reg_file[4] = 00000000
reg_file[5] = 00000000
reg_file[6] = 00000000
reg_file[7] = 00000000
reg_file[8] = 00000000
reg_file[9] = 00000000
reg_file[10] = 00000000
reg_file[11] = 00000000
reg_file[12] = 00000000
reg_file[13] = 00000000
reg_file[14] = 00000000
reg_file[15] = 00000000
UVM_INFO axi_driver.sv(145) @ 2025: uvm_test_top.env.inp_agt.inp_drv [AXI_B] BREADY=1 BVALID=1 BRESP=0
UVM_INFO axi_inp_monitor.sv(81) @ 2035: uvm_test_top.env.inp_agt.inp_mon [AXI_B] BREADY=1 BRESP=0 BVALID=1
UVM_INFO axi_subscriber.sv(158) @ 2035: uvm_test_top.env.sub [sub] [DRIVER]:INPUT RECIEVED
UVM_INFO axi_op_monitor.sv(81) @ 2035: uvm_test_top.env.op_agt.op_mon [OP_B] BVALID=1 BREADY=1 BRESP=0
UVM_INFO axi_scoreboard.sv(42) @ 2035: uvm_test_top.env.scb [SCB] e
UVM_INFO axi_scoreboard.sv(105) @ 2035: uvm_test_top.env.scb [SCB] WRITE ADDRESS PASS: Exp_AWADDR=0 Actual_AWADDR=0
UVM_INFO axi_scoreboard.sv(110) @ 2035: uvm_test_top.env.scb [SCB] WRITE DATA PASS: Exp_WDATA=5b3da581 Actual_WDATA=5b3da581
UVM_INFO axi_scoreboard.sv(115) @ 2035: uvm_test_top.env.scb [SCB] WRITE WSTRB PASS: Exp_WSTRB=e Actual_WSTRB=e
UVM_INFO axi_scoreboard.sv(120) @ 2035: uvm_test_top.env.scb [SCB] WRITE BRESP PASS: Exp_BRESP=0 Actual_BRESP=0
UVM_INFO axi_driver.sv(129) @ 2055: uvm_test_top.env.inp_agt.inp_drv [AXI_W] WDATA=4a74b601 WSTRB=a WVALID=1 WREADY=1
UVM_INFO axi_inp_monitor.sv(73) @ 2065: uvm_test_top.env.inp_agt.inp_mon [AXI_W] WDATA=4a74b601 WSTRB=a WVALID=1 WREADY=1
UVM_INFO axi_op_monitor.sv(73) @ 2065: uvm_test_top.env.op_agt.op_mon [OP_W] WVALID=1 WREADY=1 WDATA=4a74b601 WSTRB=a
UVM_INFO axi_driver.sv(111) @ 2105: uvm_test_top.env.inp_agt.inp_drv [AXI_AW] AWADDR=0 AWPROT=0 AWVALID=1 AWREADY=1
UVM_INFO axi_inp_monitor.sv(64) @ 2115: uvm_test_top.env.inp_agt.inp_mon [AXI_AW] AWADDR=0 AWPROT=0 AWVALID=1 AWREADY=1
UVM_INFO axi_op_monitor.sv(64) @ 2115: uvm_test_top.env.op_agt.op_mon [OP_AW] AWVALID=1 AWREADY=1 AWADDR=0 AWPROT=0
reg_file[0] = 4a3db64f
reg_file[1] = 068c7024
reg_file[2] = 0cf757b7
reg_file[3] = 00000000
reg_file[4] = 00000000
reg_file[5] = 00000000
reg_file[6] = 00000000
reg_file[7] = 00000000
reg_file[8] = 00000000
reg_file[9] = 00000000
reg_file[10] = 00000000
reg_file[11] = 00000000
reg_file[12] = 00000000
reg_file[13] = 00000000
reg_file[14] = 00000000
reg_file[15] = 00000000
UVM_INFO axi_driver.sv(145) @ 2125: uvm_test_top.env.inp_agt.inp_drv [AXI_B] BREADY=1 BVALID=1 BRESP=0
UVM_INFO axi_inp_monitor.sv(81) @ 2135: uvm_test_top.env.inp_agt.inp_mon [AXI_B] BREADY=1 BRESP=0 BVALID=1
UVM_INFO axi_subscriber.sv(158) @ 2135: uvm_test_top.env.sub [sub] [DRIVER]:INPUT RECIEVED
UVM_INFO axi_op_monitor.sv(81) @ 2135: uvm_test_top.env.op_agt.op_mon [OP_B] BVALID=1 BREADY=1 BRESP=0
UVM_INFO axi_scoreboard.sv(42) @ 2135: uvm_test_top.env.scb [SCB] a
UVM_INFO axi_scoreboard.sv(105) @ 2135: uvm_test_top.env.scb [SCB] WRITE ADDRESS PASS: Exp_AWADDR=0 Actual_AWADDR=0
UVM_INFO axi_scoreboard.sv(110) @ 2135: uvm_test_top.env.scb [SCB] WRITE DATA PASS: Exp_WDATA=4a74b601 Actual_WDATA=4a74b601
UVM_INFO axi_scoreboard.sv(115) @ 2135: uvm_test_top.env.scb [SCB] WRITE WSTRB PASS: Exp_WSTRB=a Actual_WSTRB=a
UVM_INFO axi_scoreboard.sv(120) @ 2135: uvm_test_top.env.scb [SCB] WRITE BRESP PASS: Exp_BRESP=0 Actual_BRESP=0
UVM_INFO axi_driver.sv(129) @ 2155: uvm_test_top.env.inp_agt.inp_drv [AXI_W] WDATA=8361df47 WSTRB=8 WVALID=1 WREADY=1
UVM_INFO axi_inp_monitor.sv(73) @ 2165: uvm_test_top.env.inp_agt.inp_mon [AXI_W] WDATA=8361df47 WSTRB=8 WVALID=1 WREADY=1
UVM_INFO axi_op_monitor.sv(73) @ 2165: uvm_test_top.env.op_agt.op_mon [OP_W] WVALID=1 WREADY=1 WDATA=8361df47 WSTRB=8
UVM_INFO axi_driver.sv(111) @ 2205: uvm_test_top.env.inp_agt.inp_drv [AXI_AW] AWADDR=4 AWPROT=110 AWVALID=1 AWREADY=1
UVM_INFO axi_inp_monitor.sv(64) @ 2215: uvm_test_top.env.inp_agt.inp_mon [AXI_AW] AWADDR=4 AWPROT=110 AWVALID=1 AWREADY=1
UVM_INFO axi_op_monitor.sv(64) @ 2215: uvm_test_top.env.op_agt.op_mon [OP_AW] AWVALID=1 AWREADY=1 AWADDR=4 AWPROT=110
reg_file[0] = 4a3db64f
reg_file[1] = 838c7024
reg_file[2] = 0cf757b7
reg_file[3] = 00000000
reg_file[4] = 00000000
reg_file[5] = 00000000
reg_file[6] = 00000000
reg_file[7] = 00000000
reg_file[8] = 00000000
reg_file[9] = 00000000
reg_file[10] = 00000000
reg_file[11] = 00000000
reg_file[12] = 00000000
reg_file[13] = 00000000
reg_file[14] = 00000000
reg_file[15] = 00000000
UVM_INFO axi_driver.sv(145) @ 2225: uvm_test_top.env.inp_agt.inp_drv [AXI_B] BREADY=1 BVALID=1 BRESP=0
UVM_INFO axi_inp_monitor.sv(81) @ 2235: uvm_test_top.env.inp_agt.inp_mon [AXI_B] BREADY=1 BRESP=0 BVALID=1
UVM_INFO axi_subscriber.sv(158) @ 2235: uvm_test_top.env.sub [sub] [DRIVER]:INPUT RECIEVED
UVM_INFO axi_op_monitor.sv(81) @ 2235: uvm_test_top.env.op_agt.op_mon [OP_B] BVALID=1 BREADY=1 BRESP=0
UVM_INFO axi_scoreboard.sv(42) @ 2235: uvm_test_top.env.scb [SCB] 8
UVM_INFO axi_scoreboard.sv(105) @ 2235: uvm_test_top.env.scb [SCB] WRITE ADDRESS PASS: Exp_AWADDR=4 Actual_AWADDR=4
UVM_INFO axi_scoreboard.sv(110) @ 2235: uvm_test_top.env.scb [SCB] WRITE DATA PASS: Exp_WDATA=8361df47 Actual_WDATA=8361df47
UVM_INFO axi_scoreboard.sv(115) @ 2235: uvm_test_top.env.scb [SCB] WRITE WSTRB PASS: Exp_WSTRB=8 Actual_WSTRB=8
UVM_INFO axi_scoreboard.sv(120) @ 2235: uvm_test_top.env.scb [SCB] WRITE BRESP PASS: Exp_BRESP=0 Actual_BRESP=0
UVM_INFO axi_driver.sv(129) @ 2255: uvm_test_top.env.inp_agt.inp_drv [AXI_W] WDATA=d5d1a9e0 WSTRB=9 WVALID=1 WREADY=1
UVM_INFO axi_inp_monitor.sv(73) @ 2265: uvm_test_top.env.inp_agt.inp_mon [AXI_W] WDATA=d5d1a9e0 WSTRB=9 WVALID=1 WREADY=1
UVM_INFO axi_op_monitor.sv(73) @ 2265: uvm_test_top.env.op_agt.op_mon [OP_W] WVALID=1 WREADY=1 WDATA=d5d1a9e0 WSTRB=9
UVM_INFO axi_driver.sv(111) @ 2305: uvm_test_top.env.inp_agt.inp_drv [AXI_AW] AWADDR=0 AWPROT=101 AWVALID=1 AWREADY=1
UVM_INFO axi_inp_monitor.sv(64) @ 2315: uvm_test_top.env.inp_agt.inp_mon [AXI_AW] AWADDR=0 AWPROT=101 AWVALID=1 AWREADY=1
UVM_INFO axi_op_monitor.sv(64) @ 2315: uvm_test_top.env.op_agt.op_mon [OP_AW] AWVALID=1 AWREADY=1 AWADDR=0 AWPROT=101
reg_file[0] = d53db6e0
reg_file[1] = 838c7024
reg_file[2] = 0cf757b7
reg_file[3] = 00000000
reg_file[4] = 00000000
reg_file[5] = 00000000
reg_file[6] = 00000000
reg_file[7] = 00000000
reg_file[8] = 00000000
reg_file[9] = 00000000
reg_file[10] = 00000000
reg_file[11] = 00000000
reg_file[12] = 00000000
reg_file[13] = 00000000
reg_file[14] = 00000000
reg_file[15] = 00000000
UVM_INFO axi_driver.sv(145) @ 2325: uvm_test_top.env.inp_agt.inp_drv [AXI_B] BREADY=1 BVALID=1 BRESP=0
UVM_INFO axi_inp_monitor.sv(81) @ 2335: uvm_test_top.env.inp_agt.inp_mon [AXI_B] BREADY=1 BRESP=0 BVALID=1
UVM_INFO axi_subscriber.sv(158) @ 2335: uvm_test_top.env.sub [sub] [DRIVER]:INPUT RECIEVED
UVM_INFO axi_op_monitor.sv(81) @ 2335: uvm_test_top.env.op_agt.op_mon [OP_B] BVALID=1 BREADY=1 BRESP=0
UVM_INFO axi_scoreboard.sv(42) @ 2335: uvm_test_top.env.scb [SCB] 9
UVM_INFO axi_scoreboard.sv(105) @ 2335: uvm_test_top.env.scb [SCB] WRITE ADDRESS PASS: Exp_AWADDR=0 Actual_AWADDR=0
UVM_INFO axi_scoreboard.sv(110) @ 2335: uvm_test_top.env.scb [SCB] WRITE DATA PASS: Exp_WDATA=d5d1a9e0 Actual_WDATA=d5d1a9e0
UVM_INFO axi_scoreboard.sv(115) @ 2335: uvm_test_top.env.scb [SCB] WRITE WSTRB PASS: Exp_WSTRB=9 Actual_WSTRB=9
UVM_INFO axi_scoreboard.sv(120) @ 2335: uvm_test_top.env.scb [SCB] WRITE BRESP PASS: Exp_BRESP=0 Actual_BRESP=0
UVM_INFO axi_driver.sv(129) @ 2355: uvm_test_top.env.inp_agt.inp_drv [AXI_W] WDATA=6074b459 WSTRB=2 WVALID=1 WREADY=1
UVM_INFO axi_inp_monitor.sv(73) @ 2365: uvm_test_top.env.inp_agt.inp_mon [AXI_W] WDATA=6074b459 WSTRB=2 WVALID=1 WREADY=1
UVM_INFO axi_op_monitor.sv(73) @ 2365: uvm_test_top.env.op_agt.op_mon [OP_W] WVALID=1 WREADY=1 WDATA=6074b459 WSTRB=2
UVM_INFO axi_driver.sv(111) @ 2405: uvm_test_top.env.inp_agt.inp_drv [AXI_AW] AWADDR=8 AWPROT=0 AWVALID=1 AWREADY=1
UVM_INFO axi_inp_monitor.sv(64) @ 2415: uvm_test_top.env.inp_agt.inp_mon [AXI_AW] AWADDR=8 AWPROT=0 AWVALID=1 AWREADY=1
UVM_INFO axi_op_monitor.sv(64) @ 2415: uvm_test_top.env.op_agt.op_mon [OP_AW] AWVALID=1 AWREADY=1 AWADDR=8 AWPROT=0
reg_file[0] = d53db6e0
reg_file[1] = 838c7024
reg_file[2] = 0cf7b4b7
reg_file[3] = 00000000
reg_file[4] = 00000000
reg_file[5] = 00000000
reg_file[6] = 00000000
reg_file[7] = 00000000
reg_file[8] = 00000000
reg_file[9] = 00000000
reg_file[10] = 00000000
reg_file[11] = 00000000
reg_file[12] = 00000000
reg_file[13] = 00000000
reg_file[14] = 00000000
reg_file[15] = 00000000
UVM_INFO axi_driver.sv(145) @ 2425: uvm_test_top.env.inp_agt.inp_drv [AXI_B] BREADY=1 BVALID=1 BRESP=0
UVM_INFO axi_inp_monitor.sv(81) @ 2435: uvm_test_top.env.inp_agt.inp_mon [AXI_B] BREADY=1 BRESP=0 BVALID=1
UVM_INFO axi_subscriber.sv(158) @ 2435: uvm_test_top.env.sub [sub] [DRIVER]:INPUT RECIEVED
UVM_INFO axi_op_monitor.sv(81) @ 2435: uvm_test_top.env.op_agt.op_mon [OP_B] BVALID=1 BREADY=1 BRESP=0
UVM_INFO axi_scoreboard.sv(42) @ 2435: uvm_test_top.env.scb [SCB] 2
UVM_INFO axi_scoreboard.sv(105) @ 2435: uvm_test_top.env.scb [SCB] WRITE ADDRESS PASS: Exp_AWADDR=8 Actual_AWADDR=8
UVM_INFO axi_scoreboard.sv(110) @ 2435: uvm_test_top.env.scb [SCB] WRITE DATA PASS: Exp_WDATA=6074b459 Actual_WDATA=6074b459
UVM_INFO axi_scoreboard.sv(115) @ 2435: uvm_test_top.env.scb [SCB] WRITE WSTRB PASS: Exp_WSTRB=2 Actual_WSTRB=2
UVM_INFO axi_scoreboard.sv(120) @ 2435: uvm_test_top.env.scb [SCB] WRITE BRESP PASS: Exp_BRESP=0 Actual_BRESP=0
UVM_INFO axi_driver.sv(129) @ 2455: uvm_test_top.env.inp_agt.inp_drv [AXI_W] WDATA=5ab387bc WSTRB=a WVALID=1 WREADY=1
UVM_INFO axi_inp_monitor.sv(73) @ 2465: uvm_test_top.env.inp_agt.inp_mon [AXI_W] WDATA=5ab387bc WSTRB=a WVALID=1 WREADY=1
UVM_INFO axi_op_monitor.sv(73) @ 2465: uvm_test_top.env.op_agt.op_mon [OP_W] WVALID=1 WREADY=1 WDATA=5ab387bc WSTRB=a
UVM_INFO axi_driver.sv(111) @ 2505: uvm_test_top.env.inp_agt.inp_drv [AXI_AW] AWADDR=0 AWPROT=10 AWVALID=1 AWREADY=1
UVM_INFO axi_inp_monitor.sv(64) @ 2515: uvm_test_top.env.inp_agt.inp_mon [AXI_AW] AWADDR=0 AWPROT=10 AWVALID=1 AWREADY=1
UVM_INFO axi_op_monitor.sv(64) @ 2515: uvm_test_top.env.op_agt.op_mon [OP_AW] AWVALID=1 AWREADY=1 AWADDR=0 AWPROT=10
reg_file[0] = 5a3d87e0
reg_file[1] = 838c7024
reg_file[2] = 0cf7b4b7
reg_file[3] = 00000000
reg_file[4] = 00000000
reg_file[5] = 00000000
reg_file[6] = 00000000
reg_file[7] = 00000000
reg_file[8] = 00000000
reg_file[9] = 00000000
reg_file[10] = 00000000
reg_file[11] = 00000000
reg_file[12] = 00000000
reg_file[13] = 00000000
reg_file[14] = 00000000
reg_file[15] = 00000000
UVM_INFO axi_driver.sv(145) @ 2525: uvm_test_top.env.inp_agt.inp_drv [AXI_B] BREADY=1 BVALID=1 BRESP=0
UVM_INFO axi_inp_monitor.sv(81) @ 2535: uvm_test_top.env.inp_agt.inp_mon [AXI_B] BREADY=1 BRESP=0 BVALID=1
UVM_INFO axi_subscriber.sv(158) @ 2535: uvm_test_top.env.sub [sub] [DRIVER]:INPUT RECIEVED
UVM_INFO axi_op_monitor.sv(81) @ 2535: uvm_test_top.env.op_agt.op_mon [OP_B] BVALID=1 BREADY=1 BRESP=0
UVM_INFO axi_scoreboard.sv(42) @ 2535: uvm_test_top.env.scb [SCB] a
UVM_INFO axi_scoreboard.sv(105) @ 2535: uvm_test_top.env.scb [SCB] WRITE ADDRESS PASS: Exp_AWADDR=0 Actual_AWADDR=0
UVM_INFO axi_scoreboard.sv(110) @ 2535: uvm_test_top.env.scb [SCB] WRITE DATA PASS: Exp_WDATA=5ab387bc Actual_WDATA=5ab387bc
UVM_INFO axi_scoreboard.sv(115) @ 2535: uvm_test_top.env.scb [SCB] WRITE WSTRB PASS: Exp_WSTRB=a Actual_WSTRB=a
UVM_INFO axi_scoreboard.sv(120) @ 2535: uvm_test_top.env.scb [SCB] WRITE BRESP PASS: Exp_BRESP=0 Actual_BRESP=0
UVM_INFO axi_driver.sv(129) @ 2555: uvm_test_top.env.inp_agt.inp_drv [AXI_W] WDATA=c0463af8 WSTRB=a WVALID=1 WREADY=1
UVM_INFO axi_inp_monitor.sv(73) @ 2565: uvm_test_top.env.inp_agt.inp_mon [AXI_W] WDATA=c0463af8 WSTRB=a WVALID=1 WREADY=1
UVM_INFO axi_op_monitor.sv(73) @ 2565: uvm_test_top.env.op_agt.op_mon [OP_W] WVALID=1 WREADY=1 WDATA=c0463af8 WSTRB=a
UVM_INFO axi_driver.sv(111) @ 2605: uvm_test_top.env.inp_agt.inp_drv [AXI_AW] AWADDR=8 AWPROT=10 AWVALID=1 AWREADY=1
UVM_INFO axi_inp_monitor.sv(64) @ 2615: uvm_test_top.env.inp_agt.inp_mon [AXI_AW] AWADDR=8 AWPROT=10 AWVALID=1 AWREADY=1
UVM_INFO axi_op_monitor.sv(64) @ 2615: uvm_test_top.env.op_agt.op_mon [OP_AW] AWVALID=1 AWREADY=1 AWADDR=8 AWPROT=10
reg_file[0] = 5a3d87e0
reg_file[1] = 838c7024
reg_file[2] = c0f73ab7
reg_file[3] = 00000000
reg_file[4] = 00000000
reg_file[5] = 00000000
reg_file[6] = 00000000
reg_file[7] = 00000000
reg_file[8] = 00000000
reg_file[9] = 00000000
reg_file[10] = 00000000
reg_file[11] = 00000000
reg_file[12] = 00000000
reg_file[13] = 00000000
reg_file[14] = 00000000
reg_file[15] = 00000000
UVM_INFO axi_driver.sv(145) @ 2625: uvm_test_top.env.inp_agt.inp_drv [AXI_B] BREADY=1 BVALID=1 BRESP=0
UVM_INFO axi_inp_monitor.sv(81) @ 2635: uvm_test_top.env.inp_agt.inp_mon [AXI_B] BREADY=1 BRESP=0 BVALID=1
UVM_INFO axi_subscriber.sv(158) @ 2635: uvm_test_top.env.sub [sub] [DRIVER]:INPUT RECIEVED
UVM_INFO axi_op_monitor.sv(81) @ 2635: uvm_test_top.env.op_agt.op_mon [OP_B] BVALID=1 BREADY=1 BRESP=0
UVM_INFO axi_scoreboard.sv(42) @ 2635: uvm_test_top.env.scb [SCB] a
UVM_INFO axi_scoreboard.sv(105) @ 2635: uvm_test_top.env.scb [SCB] WRITE ADDRESS PASS: Exp_AWADDR=8 Actual_AWADDR=8
UVM_INFO axi_scoreboard.sv(110) @ 2635: uvm_test_top.env.scb [SCB] WRITE DATA PASS: Exp_WDATA=c0463af8 Actual_WDATA=c0463af8
UVM_INFO axi_scoreboard.sv(115) @ 2635: uvm_test_top.env.scb [SCB] WRITE WSTRB PASS: Exp_WSTRB=a Actual_WSTRB=a
UVM_INFO axi_scoreboard.sv(120) @ 2635: uvm_test_top.env.scb [SCB] WRITE BRESP PASS: Exp_BRESP=0 Actual_BRESP=0
UVM_INFO axi_driver.sv(129) @ 2655: uvm_test_top.env.inp_agt.inp_drv [AXI_W] WDATA=e90974e1 WSTRB=c WVALID=1 WREADY=1
UVM_INFO axi_inp_monitor.sv(73) @ 2665: uvm_test_top.env.inp_agt.inp_mon [AXI_W] WDATA=e90974e1 WSTRB=c WVALID=1 WREADY=1
UVM_INFO axi_op_monitor.sv(73) @ 2665: uvm_test_top.env.op_agt.op_mon [OP_W] WVALID=1 WREADY=1 WDATA=e90974e1 WSTRB=c
UVM_INFO axi_driver.sv(111) @ 2705: uvm_test_top.env.inp_agt.inp_drv [AXI_AW] AWADDR=4 AWPROT=10 AWVALID=1 AWREADY=1
UVM_INFO axi_inp_monitor.sv(64) @ 2715: uvm_test_top.env.inp_agt.inp_mon [AXI_AW] AWADDR=4 AWPROT=10 AWVALID=1 AWREADY=1
UVM_INFO axi_op_monitor.sv(64) @ 2715: uvm_test_top.env.op_agt.op_mon [OP_AW] AWVALID=1 AWREADY=1 AWADDR=4 AWPROT=10
reg_file[0] = 5a3d87e0
reg_file[1] = e9097024
reg_file[2] = c0f73ab7
reg_file[3] = 00000000
reg_file[4] = 00000000
reg_file[5] = 00000000
reg_file[6] = 00000000
reg_file[7] = 00000000
reg_file[8] = 00000000
reg_file[9] = 00000000
reg_file[10] = 00000000
reg_file[11] = 00000000
reg_file[12] = 00000000
reg_file[13] = 00000000
reg_file[14] = 00000000
reg_file[15] = 00000000
UVM_INFO axi_driver.sv(145) @ 2725: uvm_test_top.env.inp_agt.inp_drv [AXI_B] BREADY=1 BVALID=1 BRESP=0
UVM_INFO axi_inp_monitor.sv(81) @ 2735: uvm_test_top.env.inp_agt.inp_mon [AXI_B] BREADY=1 BRESP=0 BVALID=1
UVM_INFO axi_subscriber.sv(158) @ 2735: uvm_test_top.env.sub [sub] [DRIVER]:INPUT RECIEVED
UVM_INFO axi_op_monitor.sv(81) @ 2735: uvm_test_top.env.op_agt.op_mon [OP_B] BVALID=1 BREADY=1 BRESP=0
UVM_INFO axi_scoreboard.sv(42) @ 2735: uvm_test_top.env.scb [SCB] c
UVM_INFO axi_scoreboard.sv(105) @ 2735: uvm_test_top.env.scb [SCB] WRITE ADDRESS PASS: Exp_AWADDR=4 Actual_AWADDR=4
UVM_INFO axi_scoreboard.sv(110) @ 2735: uvm_test_top.env.scb [SCB] WRITE DATA PASS: Exp_WDATA=e90974e1 Actual_WDATA=e90974e1
UVM_INFO axi_scoreboard.sv(115) @ 2735: uvm_test_top.env.scb [SCB] WRITE WSTRB PASS: Exp_WSTRB=c Actual_WSTRB=c
UVM_INFO axi_scoreboard.sv(120) @ 2735: uvm_test_top.env.scb [SCB] WRITE BRESP PASS: Exp_BRESP=0 Actual_BRESP=0
UVM_INFO axi_driver.sv(129) @ 2755: uvm_test_top.env.inp_agt.inp_drv [AXI_W] WDATA=f9d55c38 WSTRB=c WVALID=1 WREADY=1
UVM_INFO axi_inp_monitor.sv(73) @ 2765: uvm_test_top.env.inp_agt.inp_mon [AXI_W] WDATA=f9d55c38 WSTRB=c WVALID=1 WREADY=1
UVM_INFO axi_op_monitor.sv(73) @ 2765: uvm_test_top.env.op_agt.op_mon [OP_W] WVALID=1 WREADY=1 WDATA=f9d55c38 WSTRB=c
UVM_INFO axi_driver.sv(111) @ 2805: uvm_test_top.env.inp_agt.inp_drv [AXI_AW] AWADDR=4 AWPROT=1 AWVALID=1 AWREADY=1
UVM_INFO axi_inp_monitor.sv(64) @ 2815: uvm_test_top.env.inp_agt.inp_mon [AXI_AW] AWADDR=4 AWPROT=1 AWVALID=1 AWREADY=1
UVM_INFO axi_op_monitor.sv(64) @ 2815: uvm_test_top.env.op_agt.op_mon [OP_AW] AWVALID=1 AWREADY=1 AWADDR=4 AWPROT=1
reg_file[0] = 5a3d87e0
reg_file[1] = f9d57024
reg_file[2] = c0f73ab7
reg_file[3] = 00000000
reg_file[4] = 00000000
reg_file[5] = 00000000
reg_file[6] = 00000000
reg_file[7] = 00000000
reg_file[8] = 00000000
reg_file[9] = 00000000
reg_file[10] = 00000000
reg_file[11] = 00000000
reg_file[12] = 00000000
reg_file[13] = 00000000
reg_file[14] = 00000000
reg_file[15] = 00000000
UVM_INFO axi_driver.sv(145) @ 2825: uvm_test_top.env.inp_agt.inp_drv [AXI_B] BREADY=1 BVALID=1 BRESP=0
UVM_INFO axi_inp_monitor.sv(81) @ 2835: uvm_test_top.env.inp_agt.inp_mon [AXI_B] BREADY=1 BRESP=0 BVALID=1
UVM_INFO axi_subscriber.sv(158) @ 2835: uvm_test_top.env.sub [sub] [DRIVER]:INPUT RECIEVED
UVM_INFO axi_op_monitor.sv(81) @ 2835: uvm_test_top.env.op_agt.op_mon [OP_B] BVALID=1 BREADY=1 BRESP=0
UVM_INFO axi_scoreboard.sv(42) @ 2835: uvm_test_top.env.scb [SCB] c
UVM_INFO axi_scoreboard.sv(105) @ 2835: uvm_test_top.env.scb [SCB] WRITE ADDRESS PASS: Exp_AWADDR=4 Actual_AWADDR=4
UVM_INFO axi_scoreboard.sv(110) @ 2835: uvm_test_top.env.scb [SCB] WRITE DATA PASS: Exp_WDATA=f9d55c38 Actual_WDATA=f9d55c38
UVM_INFO axi_scoreboard.sv(115) @ 2835: uvm_test_top.env.scb [SCB] WRITE WSTRB PASS: Exp_WSTRB=c Actual_WSTRB=c
UVM_INFO axi_scoreboard.sv(120) @ 2835: uvm_test_top.env.scb [SCB] WRITE BRESP PASS: Exp_BRESP=0 Actual_BRESP=0
UVM_INFO axi_driver.sv(129) @ 2855: uvm_test_top.env.inp_agt.inp_drv [AXI_W] WDATA=79e45b73 WSTRB=5 WVALID=1 WREADY=1
UVM_INFO axi_inp_monitor.sv(73) @ 2865: uvm_test_top.env.inp_agt.inp_mon [AXI_W] WDATA=79e45b73 WSTRB=5 WVALID=1 WREADY=1
UVM_INFO axi_op_monitor.sv(73) @ 2865: uvm_test_top.env.op_agt.op_mon [OP_W] WVALID=1 WREADY=1 WDATA=79e45b73 WSTRB=5
UVM_INFO axi_driver.sv(111) @ 2905: uvm_test_top.env.inp_agt.inp_drv [AXI_AW] AWADDR=0 AWPROT=100 AWVALID=1 AWREADY=1
UVM_INFO axi_inp_monitor.sv(64) @ 2915: uvm_test_top.env.inp_agt.inp_mon [AXI_AW] AWADDR=0 AWPROT=100 AWVALID=1 AWREADY=1
UVM_INFO axi_op_monitor.sv(64) @ 2915: uvm_test_top.env.op_agt.op_mon [OP_AW] AWVALID=1 AWREADY=1 AWADDR=0 AWPROT=100
reg_file[0] = 5ae48773
reg_file[1] = f9d57024
reg_file[2] = c0f73ab7
reg_file[3] = 00000000
reg_file[4] = 00000000
reg_file[5] = 00000000
reg_file[6] = 00000000
reg_file[7] = 00000000
reg_file[8] = 00000000
reg_file[9] = 00000000
reg_file[10] = 00000000
reg_file[11] = 00000000
reg_file[12] = 00000000
reg_file[13] = 00000000
reg_file[14] = 00000000
reg_file[15] = 00000000
UVM_INFO axi_driver.sv(145) @ 2925: uvm_test_top.env.inp_agt.inp_drv [AXI_B] BREADY=1 BVALID=1 BRESP=0
UVM_INFO axi_inp_monitor.sv(81) @ 2935: uvm_test_top.env.inp_agt.inp_mon [AXI_B] BREADY=1 BRESP=0 BVALID=1
UVM_INFO axi_subscriber.sv(158) @ 2935: uvm_test_top.env.sub [sub] [DRIVER]:INPUT RECIEVED
UVM_INFO axi_op_monitor.sv(81) @ 2935: uvm_test_top.env.op_agt.op_mon [OP_B] BVALID=1 BREADY=1 BRESP=0
UVM_INFO axi_scoreboard.sv(42) @ 2935: uvm_test_top.env.scb [SCB] 5
UVM_INFO axi_scoreboard.sv(105) @ 2935: uvm_test_top.env.scb [SCB] WRITE ADDRESS PASS: Exp_AWADDR=0 Actual_AWADDR=0
UVM_INFO axi_scoreboard.sv(110) @ 2935: uvm_test_top.env.scb [SCB] WRITE DATA PASS: Exp_WDATA=79e45b73 Actual_WDATA=79e45b73
UVM_INFO axi_scoreboard.sv(115) @ 2935: uvm_test_top.env.scb [SCB] WRITE WSTRB PASS: Exp_WSTRB=5 Actual_WSTRB=5
UVM_INFO axi_scoreboard.sv(120) @ 2935: uvm_test_top.env.scb [SCB] WRITE BRESP PASS: Exp_BRESP=0 Actual_BRESP=0
UVM_INFO axi_driver.sv(129) @ 2955: uvm_test_top.env.inp_agt.inp_drv [AXI_W] WDATA=cd942a4d WSTRB=d WVALID=1 WREADY=1
UVM_INFO axi_inp_monitor.sv(73) @ 2965: uvm_test_top.env.inp_agt.inp_mon [AXI_W] WDATA=cd942a4d WSTRB=d WVALID=1 WREADY=1
UVM_INFO axi_op_monitor.sv(73) @ 2965: uvm_test_top.env.op_agt.op_mon [OP_W] WVALID=1 WREADY=1 WDATA=cd942a4d WSTRB=d
UVM_INFO axi_driver.sv(111) @ 3005: uvm_test_top.env.inp_agt.inp_drv [AXI_AW] AWADDR=8 AWPROT=110 AWVALID=1 AWREADY=1
UVM_INFO axi_inp_monitor.sv(64) @ 3015: uvm_test_top.env.inp_agt.inp_mon [AXI_AW] AWADDR=8 AWPROT=110 AWVALID=1 AWREADY=1
UVM_INFO axi_op_monitor.sv(64) @ 3015: uvm_test_top.env.op_agt.op_mon [OP_AW] AWVALID=1 AWREADY=1 AWADDR=8 AWPROT=110
reg_file[0] = 5ae48773
reg_file[1] = f9d57024
reg_file[2] = cd943a4d
reg_file[3] = 00000000
reg_file[4] = 00000000
reg_file[5] = 00000000
reg_file[6] = 00000000
reg_file[7] = 00000000
reg_file[8] = 00000000
reg_file[9] = 00000000
reg_file[10] = 00000000
reg_file[11] = 00000000
reg_file[12] = 00000000
reg_file[13] = 00000000
reg_file[14] = 00000000
reg_file[15] = 00000000
UVM_INFO axi_driver.sv(145) @ 3025: uvm_test_top.env.inp_agt.inp_drv [AXI_B] BREADY=1 BVALID=1 BRESP=0
UVM_INFO axi_inp_monitor.sv(81) @ 3035: uvm_test_top.env.inp_agt.inp_mon [AXI_B] BREADY=1 BRESP=0 BVALID=1
UVM_INFO axi_subscriber.sv(158) @ 3035: uvm_test_top.env.sub [sub] [DRIVER]:INPUT RECIEVED
UVM_INFO axi_op_monitor.sv(81) @ 3035: uvm_test_top.env.op_agt.op_mon [OP_B] BVALID=1 BREADY=1 BRESP=0
UVM_INFO axi_scoreboard.sv(42) @ 3035: uvm_test_top.env.scb [SCB] d
UVM_INFO axi_scoreboard.sv(105) @ 3035: uvm_test_top.env.scb [SCB] WRITE ADDRESS PASS: Exp_AWADDR=8 Actual_AWADDR=8
UVM_INFO axi_scoreboard.sv(110) @ 3035: uvm_test_top.env.scb [SCB] WRITE DATA PASS: Exp_WDATA=cd942a4d Actual_WDATA=cd942a4d
UVM_INFO axi_scoreboard.sv(115) @ 3035: uvm_test_top.env.scb [SCB] WRITE WSTRB PASS: Exp_WSTRB=d Actual_WSTRB=d
UVM_INFO axi_scoreboard.sv(120) @ 3035: uvm_test_top.env.scb [SCB] WRITE BRESP PASS: Exp_BRESP=0 Actual_BRESP=0
UVM_INFO axi_driver.sv(129) @ 3055: uvm_test_top.env.inp_agt.inp_drv [AXI_W] WDATA=d7be0eff WSTRB=0 WVALID=1 WREADY=1
UVM_INFO axi_inp_monitor.sv(73) @ 3065: uvm_test_top.env.inp_agt.inp_mon [AXI_W] WDATA=d7be0eff WSTRB=0 WVALID=1 WREADY=1
UVM_INFO axi_op_monitor.sv(73) @ 3065: uvm_test_top.env.op_agt.op_mon [OP_W] WVALID=1 WREADY=1 WDATA=d7be0eff WSTRB=0
UVM_INFO axi_driver.sv(111) @ 3105: uvm_test_top.env.inp_agt.inp_drv [AXI_AW] AWADDR=0 AWPROT=10 AWVALID=1 AWREADY=1
UVM_INFO axi_inp_monitor.sv(64) @ 3115: uvm_test_top.env.inp_agt.inp_mon [AXI_AW] AWADDR=0 AWPROT=10 AWVALID=1 AWREADY=1
UVM_INFO axi_op_monitor.sv(64) @ 3115: uvm_test_top.env.op_agt.op_mon [OP_AW] AWVALID=1 AWREADY=1 AWADDR=0 AWPROT=10
reg_file[0] = 5ae48773
reg_file[1] = f9d57024
reg_file[2] = cd943a4d
reg_file[3] = 00000000
reg_file[4] = 00000000
reg_file[5] = 00000000
reg_file[6] = 00000000
reg_file[7] = 00000000
reg_file[8] = 00000000
reg_file[9] = 00000000
reg_file[10] = 00000000
reg_file[11] = 00000000
reg_file[12] = 00000000
reg_file[13] = 00000000
reg_file[14] = 00000000
reg_file[15] = 00000000
UVM_INFO axi_driver.sv(145) @ 3125: uvm_test_top.env.inp_agt.inp_drv [AXI_B] BREADY=1 BVALID=1 BRESP=0
UVM_INFO axi_inp_monitor.sv(81) @ 3135: uvm_test_top.env.inp_agt.inp_mon [AXI_B] BREADY=1 BRESP=0 BVALID=1
UVM_INFO axi_subscriber.sv(158) @ 3135: uvm_test_top.env.sub [sub] [DRIVER]:INPUT RECIEVED
UVM_INFO axi_op_monitor.sv(81) @ 3135: uvm_test_top.env.op_agt.op_mon [OP_B] BVALID=1 BREADY=1 BRESP=0
UVM_INFO axi_scoreboard.sv(42) @ 3135: uvm_test_top.env.scb [SCB] 0
UVM_INFO axi_scoreboard.sv(105) @ 3135: uvm_test_top.env.scb [SCB] WRITE ADDRESS PASS: Exp_AWADDR=0 Actual_AWADDR=0
UVM_INFO axi_scoreboard.sv(110) @ 3135: uvm_test_top.env.scb [SCB] WRITE DATA PASS: Exp_WDATA=d7be0eff Actual_WDATA=d7be0eff
UVM_INFO axi_scoreboard.sv(115) @ 3135: uvm_test_top.env.scb [SCB] WRITE WSTRB PASS: Exp_WSTRB=0 Actual_WSTRB=0
UVM_INFO axi_scoreboard.sv(120) @ 3135: uvm_test_top.env.scb [SCB] WRITE BRESP PASS: Exp_BRESP=0 Actual_BRESP=0
UVM_INFO axi_driver.sv(129) @ 3155: uvm_test_top.env.inp_agt.inp_drv [AXI_W] WDATA=cc083f8d WSTRB=1 WVALID=1 WREADY=1
UVM_INFO axi_inp_monitor.sv(73) @ 3165: uvm_test_top.env.inp_agt.inp_mon [AXI_W] WDATA=cc083f8d WSTRB=1 WVALID=1 WREADY=1
UVM_INFO axi_op_monitor.sv(73) @ 3165: uvm_test_top.env.op_agt.op_mon [OP_W] WVALID=1 WREADY=1 WDATA=cc083f8d WSTRB=1
UVM_INFO axi_driver.sv(111) @ 3205: uvm_test_top.env.inp_agt.inp_drv [AXI_AW] AWADDR=8 AWPROT=11 AWVALID=1 AWREADY=1
UVM_INFO axi_inp_monitor.sv(64) @ 3215: uvm_test_top.env.inp_agt.inp_mon [AXI_AW] AWADDR=8 AWPROT=11 AWVALID=1 AWREADY=1
UVM_INFO axi_op_monitor.sv(64) @ 3215: uvm_test_top.env.op_agt.op_mon [OP_AW] AWVALID=1 AWREADY=1 AWADDR=8 AWPROT=11
reg_file[0] = 5ae48773
reg_file[1] = f9d57024
reg_file[2] = cd943a8d
reg_file[3] = 00000000
reg_file[4] = 00000000
reg_file[5] = 00000000
reg_file[6] = 00000000
reg_file[7] = 00000000
reg_file[8] = 00000000
reg_file[9] = 00000000
reg_file[10] = 00000000
reg_file[11] = 00000000
reg_file[12] = 00000000
reg_file[13] = 00000000
reg_file[14] = 00000000
reg_file[15] = 00000000
UVM_INFO axi_driver.sv(145) @ 3225: uvm_test_top.env.inp_agt.inp_drv [AXI_B] BREADY=1 BVALID=1 BRESP=0
UVM_INFO axi_inp_monitor.sv(81) @ 3235: uvm_test_top.env.inp_agt.inp_mon [AXI_B] BREADY=1 BRESP=0 BVALID=1
UVM_INFO axi_subscriber.sv(158) @ 3235: uvm_test_top.env.sub [sub] [DRIVER]:INPUT RECIEVED
UVM_INFO axi_op_monitor.sv(81) @ 3235: uvm_test_top.env.op_agt.op_mon [OP_B] BVALID=1 BREADY=1 BRESP=0
UVM_INFO axi_scoreboard.sv(42) @ 3235: uvm_test_top.env.scb [SCB] 1
UVM_INFO axi_scoreboard.sv(105) @ 3235: uvm_test_top.env.scb [SCB] WRITE ADDRESS PASS: Exp_AWADDR=8 Actual_AWADDR=8
UVM_INFO axi_scoreboard.sv(110) @ 3235: uvm_test_top.env.scb [SCB] WRITE DATA PASS: Exp_WDATA=cc083f8d Actual_WDATA=cc083f8d
UVM_INFO axi_scoreboard.sv(115) @ 3235: uvm_test_top.env.scb [SCB] WRITE WSTRB PASS: Exp_WSTRB=1 Actual_WSTRB=1
UVM_INFO axi_scoreboard.sv(120) @ 3235: uvm_test_top.env.scb [SCB] WRITE BRESP PASS: Exp_BRESP=0 Actual_BRESP=0
UVM_INFO axi_driver.sv(129) @ 3255: uvm_test_top.env.inp_agt.inp_drv [AXI_W] WDATA=3ae33b96 WSTRB=d WVALID=1 WREADY=1
UVM_INFO axi_inp_monitor.sv(73) @ 3265: uvm_test_top.env.inp_agt.inp_mon [AXI_W] WDATA=3ae33b96 WSTRB=d WVALID=1 WREADY=1
UVM_INFO axi_op_monitor.sv(73) @ 3265: uvm_test_top.env.op_agt.op_mon [OP_W] WVALID=1 WREADY=1 WDATA=3ae33b96 WSTRB=d
UVM_INFO axi_driver.sv(111) @ 3305: uvm_test_top.env.inp_agt.inp_drv [AXI_AW] AWADDR=4 AWPROT=1 AWVALID=1 AWREADY=1
UVM_INFO axi_inp_monitor.sv(64) @ 3315: uvm_test_top.env.inp_agt.inp_mon [AXI_AW] AWADDR=4 AWPROT=1 AWVALID=1 AWREADY=1
UVM_INFO axi_op_monitor.sv(64) @ 3315: uvm_test_top.env.op_agt.op_mon [OP_AW] AWVALID=1 AWREADY=1 AWADDR=4 AWPROT=1
reg_file[0] = 5ae48773
reg_file[1] = 3ae37096
reg_file[2] = cd943a8d
reg_file[3] = 00000000
reg_file[4] = 00000000
reg_file[5] = 00000000
reg_file[6] = 00000000
reg_file[7] = 00000000
reg_file[8] = 00000000
reg_file[9] = 00000000
reg_file[10] = 00000000
reg_file[11] = 00000000
reg_file[12] = 00000000
reg_file[13] = 00000000
reg_file[14] = 00000000
reg_file[15] = 00000000
UVM_INFO axi_driver.sv(145) @ 3325: uvm_test_top.env.inp_agt.inp_drv [AXI_B] BREADY=1 BVALID=1 BRESP=0
UVM_INFO axi_inp_monitor.sv(81) @ 3335: uvm_test_top.env.inp_agt.inp_mon [AXI_B] BREADY=1 BRESP=0 BVALID=1
UVM_INFO axi_subscriber.sv(158) @ 3335: uvm_test_top.env.sub [sub] [DRIVER]:INPUT RECIEVED
UVM_INFO axi_op_monitor.sv(81) @ 3335: uvm_test_top.env.op_agt.op_mon [OP_B] BVALID=1 BREADY=1 BRESP=0
UVM_INFO axi_scoreboard.sv(42) @ 3335: uvm_test_top.env.scb [SCB] d
UVM_INFO axi_scoreboard.sv(105) @ 3335: uvm_test_top.env.scb [SCB] WRITE ADDRESS PASS: Exp_AWADDR=4 Actual_AWADDR=4
UVM_INFO axi_scoreboard.sv(110) @ 3335: uvm_test_top.env.scb [SCB] WRITE DATA PASS: Exp_WDATA=3ae33b96 Actual_WDATA=3ae33b96
UVM_INFO axi_scoreboard.sv(115) @ 3335: uvm_test_top.env.scb [SCB] WRITE WSTRB PASS: Exp_WSTRB=d Actual_WSTRB=d
UVM_INFO axi_scoreboard.sv(120) @ 3335: uvm_test_top.env.scb [SCB] WRITE BRESP PASS: Exp_BRESP=0 Actual_BRESP=0
UVM_INFO axi_driver.sv(129) @ 3355: uvm_test_top.env.inp_agt.inp_drv [AXI_W] WDATA=4c123c57 WSTRB=8 WVALID=1 WREADY=1
UVM_INFO axi_inp_monitor.sv(73) @ 3365: uvm_test_top.env.inp_agt.inp_mon [AXI_W] WDATA=4c123c57 WSTRB=8 WVALID=1 WREADY=1
UVM_INFO axi_op_monitor.sv(73) @ 3365: uvm_test_top.env.op_agt.op_mon [OP_W] WVALID=1 WREADY=1 WDATA=4c123c57 WSTRB=8
UVM_INFO axi_driver.sv(111) @ 3405: uvm_test_top.env.inp_agt.inp_drv [AXI_AW] AWADDR=0 AWPROT=11 AWVALID=1 AWREADY=1
UVM_INFO axi_inp_monitor.sv(64) @ 3415: uvm_test_top.env.inp_agt.inp_mon [AXI_AW] AWADDR=0 AWPROT=11 AWVALID=1 AWREADY=1
UVM_INFO axi_op_monitor.sv(64) @ 3415: uvm_test_top.env.op_agt.op_mon [OP_AW] AWVALID=1 AWREADY=1 AWADDR=0 AWPROT=11
reg_file[0] = 4ce48773
reg_file[1] = 3ae37096
reg_file[2] = cd943a8d
reg_file[3] = 00000000
reg_file[4] = 00000000
reg_file[5] = 00000000
reg_file[6] = 00000000
reg_file[7] = 00000000
reg_file[8] = 00000000
reg_file[9] = 00000000
reg_file[10] = 00000000
reg_file[11] = 00000000
reg_file[12] = 00000000
reg_file[13] = 00000000
reg_file[14] = 00000000
reg_file[15] = 00000000
UVM_INFO axi_driver.sv(145) @ 3425: uvm_test_top.env.inp_agt.inp_drv [AXI_B] BREADY=1 BVALID=1 BRESP=0
UVM_INFO axi_inp_monitor.sv(81) @ 3435: uvm_test_top.env.inp_agt.inp_mon [AXI_B] BREADY=1 BRESP=0 BVALID=1
UVM_INFO axi_subscriber.sv(158) @ 3435: uvm_test_top.env.sub [sub] [DRIVER]:INPUT RECIEVED
UVM_INFO axi_op_monitor.sv(81) @ 3435: uvm_test_top.env.op_agt.op_mon [OP_B] BVALID=1 BREADY=1 BRESP=0
UVM_INFO axi_scoreboard.sv(42) @ 3435: uvm_test_top.env.scb [SCB] 8
UVM_INFO axi_scoreboard.sv(105) @ 3435: uvm_test_top.env.scb [SCB] WRITE ADDRESS PASS: Exp_AWADDR=0 Actual_AWADDR=0
UVM_INFO axi_scoreboard.sv(110) @ 3435: uvm_test_top.env.scb [SCB] WRITE DATA PASS: Exp_WDATA=4c123c57 Actual_WDATA=4c123c57
UVM_INFO axi_scoreboard.sv(115) @ 3435: uvm_test_top.env.scb [SCB] WRITE WSTRB PASS: Exp_WSTRB=8 Actual_WSTRB=8
UVM_INFO axi_scoreboard.sv(120) @ 3435: uvm_test_top.env.scb [SCB] WRITE BRESP PASS: Exp_BRESP=0 Actual_BRESP=0
UVM_INFO axi_driver.sv(129) @ 3455: uvm_test_top.env.inp_agt.inp_drv [AXI_W] WDATA=956f68a9 WSTRB=e WVALID=1 WREADY=1
UVM_INFO axi_inp_monitor.sv(73) @ 3465: uvm_test_top.env.inp_agt.inp_mon [AXI_W] WDATA=956f68a9 WSTRB=e WVALID=1 WREADY=1
UVM_INFO axi_op_monitor.sv(73) @ 3465: uvm_test_top.env.op_agt.op_mon [OP_W] WVALID=1 WREADY=1 WDATA=956f68a9 WSTRB=e
UVM_INFO axi_driver.sv(111) @ 3505: uvm_test_top.env.inp_agt.inp_drv [AXI_AW] AWADDR=0 AWPROT=101 AWVALID=1 AWREADY=1
UVM_INFO axi_inp_monitor.sv(64) @ 3515: uvm_test_top.env.inp_agt.inp_mon [AXI_AW] AWADDR=0 AWPROT=101 AWVALID=1 AWREADY=1
UVM_INFO axi_op_monitor.sv(64) @ 3515: uvm_test_top.env.op_agt.op_mon [OP_AW] AWVALID=1 AWREADY=1 AWADDR=0 AWPROT=101
reg_file[0] = 956f6873
reg_file[1] = 3ae37096
reg_file[2] = cd943a8d
reg_file[3] = 00000000
reg_file[4] = 00000000
reg_file[5] = 00000000
reg_file[6] = 00000000
reg_file[7] = 00000000
reg_file[8] = 00000000
reg_file[9] = 00000000
reg_file[10] = 00000000
reg_file[11] = 00000000
reg_file[12] = 00000000
reg_file[13] = 00000000
reg_file[14] = 00000000
reg_file[15] = 00000000
UVM_INFO axi_driver.sv(145) @ 3525: uvm_test_top.env.inp_agt.inp_drv [AXI_B] BREADY=1 BVALID=1 BRESP=0
UVM_INFO axi_inp_monitor.sv(81) @ 3535: uvm_test_top.env.inp_agt.inp_mon [AXI_B] BREADY=1 BRESP=0 BVALID=1
UVM_INFO axi_subscriber.sv(158) @ 3535: uvm_test_top.env.sub [sub] [DRIVER]:INPUT RECIEVED
UVM_INFO axi_op_monitor.sv(81) @ 3535: uvm_test_top.env.op_agt.op_mon [OP_B] BVALID=1 BREADY=1 BRESP=0
UVM_INFO axi_scoreboard.sv(42) @ 3535: uvm_test_top.env.scb [SCB] e
UVM_INFO axi_scoreboard.sv(105) @ 3535: uvm_test_top.env.scb [SCB] WRITE ADDRESS PASS: Exp_AWADDR=0 Actual_AWADDR=0
UVM_INFO axi_scoreboard.sv(110) @ 3535: uvm_test_top.env.scb [SCB] WRITE DATA PASS: Exp_WDATA=956f68a9 Actual_WDATA=956f68a9
UVM_INFO axi_scoreboard.sv(115) @ 3535: uvm_test_top.env.scb [SCB] WRITE WSTRB PASS: Exp_WSTRB=e Actual_WSTRB=e
UVM_INFO axi_scoreboard.sv(120) @ 3535: uvm_test_top.env.scb [SCB] WRITE BRESP PASS: Exp_BRESP=0 Actual_BRESP=0
UVM_INFO axi_driver.sv(129) @ 3555: uvm_test_top.env.inp_agt.inp_drv [AXI_W] WDATA=a918b3ef WSTRB=2 WVALID=1 WREADY=1
UVM_INFO axi_inp_monitor.sv(73) @ 3565: uvm_test_top.env.inp_agt.inp_mon [AXI_W] WDATA=a918b3ef WSTRB=2 WVALID=1 WREADY=1
UVM_INFO axi_op_monitor.sv(73) @ 3565: uvm_test_top.env.op_agt.op_mon [OP_W] WVALID=1 WREADY=1 WDATA=a918b3ef WSTRB=2
UVM_INFO axi_driver.sv(111) @ 3605: uvm_test_top.env.inp_agt.inp_drv [AXI_AW] AWADDR=0 AWPROT=11 AWVALID=1 AWREADY=1
UVM_INFO axi_inp_monitor.sv(64) @ 3615: uvm_test_top.env.inp_agt.inp_mon [AXI_AW] AWADDR=0 AWPROT=11 AWVALID=1 AWREADY=1
UVM_INFO axi_op_monitor.sv(64) @ 3615: uvm_test_top.env.op_agt.op_mon [OP_AW] AWVALID=1 AWREADY=1 AWADDR=0 AWPROT=11
reg_file[0] = 956fb373
reg_file[1] = 3ae37096
reg_file[2] = cd943a8d
reg_file[3] = 00000000
reg_file[4] = 00000000
reg_file[5] = 00000000
reg_file[6] = 00000000
reg_file[7] = 00000000
reg_file[8] = 00000000
reg_file[9] = 00000000
reg_file[10] = 00000000
reg_file[11] = 00000000
reg_file[12] = 00000000
reg_file[13] = 00000000
reg_file[14] = 00000000
reg_file[15] = 00000000
UVM_INFO axi_driver.sv(145) @ 3625: uvm_test_top.env.inp_agt.inp_drv [AXI_B] BREADY=1 BVALID=1 BRESP=0
UVM_INFO axi_inp_monitor.sv(81) @ 3635: uvm_test_top.env.inp_agt.inp_mon [AXI_B] BREADY=1 BRESP=0 BVALID=1
UVM_INFO axi_subscriber.sv(158) @ 3635: uvm_test_top.env.sub [sub] [DRIVER]:INPUT RECIEVED
UVM_INFO axi_op_monitor.sv(81) @ 3635: uvm_test_top.env.op_agt.op_mon [OP_B] BVALID=1 BREADY=1 BRESP=0
UVM_INFO axi_scoreboard.sv(42) @ 3635: uvm_test_top.env.scb [SCB] 2
UVM_INFO axi_scoreboard.sv(105) @ 3635: uvm_test_top.env.scb [SCB] WRITE ADDRESS PASS: Exp_AWADDR=0 Actual_AWADDR=0
UVM_INFO axi_scoreboard.sv(110) @ 3635: uvm_test_top.env.scb [SCB] WRITE DATA PASS: Exp_WDATA=a918b3ef Actual_WDATA=a918b3ef
UVM_INFO axi_scoreboard.sv(115) @ 3635: uvm_test_top.env.scb [SCB] WRITE WSTRB PASS: Exp_WSTRB=2 Actual_WSTRB=2
UVM_INFO axi_scoreboard.sv(120) @ 3635: uvm_test_top.env.scb [SCB] WRITE BRESP PASS: Exp_BRESP=0 Actual_BRESP=0
UVM_INFO axi_driver.sv(129) @ 3655: uvm_test_top.env.inp_agt.inp_drv [AXI_W] WDATA=40a7e6ae WSTRB=a WVALID=1 WREADY=1
UVM_INFO axi_inp_monitor.sv(73) @ 3665: uvm_test_top.env.inp_agt.inp_mon [AXI_W] WDATA=40a7e6ae WSTRB=a WVALID=1 WREADY=1
UVM_INFO axi_op_monitor.sv(73) @ 3665: uvm_test_top.env.op_agt.op_mon [OP_W] WVALID=1 WREADY=1 WDATA=40a7e6ae WSTRB=a
UVM_INFO axi_driver.sv(111) @ 3705: uvm_test_top.env.inp_agt.inp_drv [AXI_AW] AWADDR=8 AWPROT=1 AWVALID=1 AWREADY=1
UVM_INFO axi_inp_monitor.sv(64) @ 3715: uvm_test_top.env.inp_agt.inp_mon [AXI_AW] AWADDR=8 AWPROT=1 AWVALID=1 AWREADY=1
UVM_INFO axi_op_monitor.sv(64) @ 3715: uvm_test_top.env.op_agt.op_mon [OP_AW] AWVALID=1 AWREADY=1 AWADDR=8 AWPROT=1
reg_file[0] = 956fb373
reg_file[1] = 3ae37096
reg_file[2] = 4094e68d
reg_file[3] = 00000000
reg_file[4] = 00000000
reg_file[5] = 00000000
reg_file[6] = 00000000
reg_file[7] = 00000000
reg_file[8] = 00000000
reg_file[9] = 00000000
reg_file[10] = 00000000
reg_file[11] = 00000000
reg_file[12] = 00000000
reg_file[13] = 00000000
reg_file[14] = 00000000
reg_file[15] = 00000000
UVM_INFO axi_driver.sv(145) @ 3725: uvm_test_top.env.inp_agt.inp_drv [AXI_B] BREADY=1 BVALID=1 BRESP=0
UVM_INFO axi_inp_monitor.sv(81) @ 3735: uvm_test_top.env.inp_agt.inp_mon [AXI_B] BREADY=1 BRESP=0 BVALID=1
UVM_INFO axi_subscriber.sv(158) @ 3735: uvm_test_top.env.sub [sub] [DRIVER]:INPUT RECIEVED
UVM_INFO axi_op_monitor.sv(81) @ 3735: uvm_test_top.env.op_agt.op_mon [OP_B] BVALID=1 BREADY=1 BRESP=0
UVM_INFO axi_scoreboard.sv(42) @ 3735: uvm_test_top.env.scb [SCB] a
UVM_INFO axi_scoreboard.sv(105) @ 3735: uvm_test_top.env.scb [SCB] WRITE ADDRESS PASS: Exp_AWADDR=8 Actual_AWADDR=8
UVM_INFO axi_scoreboard.sv(110) @ 3735: uvm_test_top.env.scb [SCB] WRITE DATA PASS: Exp_WDATA=40a7e6ae Actual_WDATA=40a7e6ae
UVM_INFO axi_scoreboard.sv(115) @ 3735: uvm_test_top.env.scb [SCB] WRITE WSTRB PASS: Exp_WSTRB=a Actual_WSTRB=a
UVM_INFO axi_scoreboard.sv(120) @ 3735: uvm_test_top.env.scb [SCB] WRITE BRESP PASS: Exp_BRESP=0 Actual_BRESP=0
UVM_INFO axi_driver.sv(129) @ 3755: uvm_test_top.env.inp_agt.inp_drv [AXI_W] WDATA=c299b5cd WSTRB=9 WVALID=1 WREADY=1
UVM_INFO axi_inp_monitor.sv(73) @ 3765: uvm_test_top.env.inp_agt.inp_mon [AXI_W] WDATA=c299b5cd WSTRB=9 WVALID=1 WREADY=1
UVM_INFO axi_op_monitor.sv(73) @ 3765: uvm_test_top.env.op_agt.op_mon [OP_W] WVALID=1 WREADY=1 WDATA=c299b5cd WSTRB=9
UVM_INFO axi_driver.sv(111) @ 3805: uvm_test_top.env.inp_agt.inp_drv [AXI_AW] AWADDR=0 AWPROT=110 AWVALID=1 AWREADY=1
UVM_INFO axi_inp_monitor.sv(64) @ 3815: uvm_test_top.env.inp_agt.inp_mon [AXI_AW] AWADDR=0 AWPROT=110 AWVALID=1 AWREADY=1
UVM_INFO axi_op_monitor.sv(64) @ 3815: uvm_test_top.env.op_agt.op_mon [OP_AW] AWVALID=1 AWREADY=1 AWADDR=0 AWPROT=110
reg_file[0] = c26fb3cd
reg_file[1] = 3ae37096
reg_file[2] = 4094e68d
reg_file[3] = 00000000
reg_file[4] = 00000000
reg_file[5] = 00000000
reg_file[6] = 00000000
reg_file[7] = 00000000
reg_file[8] = 00000000
reg_file[9] = 00000000
reg_file[10] = 00000000
reg_file[11] = 00000000
reg_file[12] = 00000000
reg_file[13] = 00000000
reg_file[14] = 00000000
reg_file[15] = 00000000
UVM_INFO axi_driver.sv(145) @ 3825: uvm_test_top.env.inp_agt.inp_drv [AXI_B] BREADY=1 BVALID=1 BRESP=0
UVM_INFO axi_inp_monitor.sv(81) @ 3835: uvm_test_top.env.inp_agt.inp_mon [AXI_B] BREADY=1 BRESP=0 BVALID=1
UVM_INFO axi_subscriber.sv(158) @ 3835: uvm_test_top.env.sub [sub] [DRIVER]:INPUT RECIEVED
UVM_INFO axi_op_monitor.sv(81) @ 3835: uvm_test_top.env.op_agt.op_mon [OP_B] BVALID=1 BREADY=1 BRESP=0
UVM_INFO axi_scoreboard.sv(42) @ 3835: uvm_test_top.env.scb [SCB] 9
UVM_INFO axi_scoreboard.sv(105) @ 3835: uvm_test_top.env.scb [SCB] WRITE ADDRESS PASS: Exp_AWADDR=0 Actual_AWADDR=0
UVM_INFO axi_scoreboard.sv(110) @ 3835: uvm_test_top.env.scb [SCB] WRITE DATA PASS: Exp_WDATA=c299b5cd Actual_WDATA=c299b5cd
UVM_INFO axi_scoreboard.sv(115) @ 3835: uvm_test_top.env.scb [SCB] WRITE WSTRB PASS: Exp_WSTRB=9 Actual_WSTRB=9
UVM_INFO axi_scoreboard.sv(120) @ 3835: uvm_test_top.env.scb [SCB] WRITE BRESP PASS: Exp_BRESP=0 Actual_BRESP=0
UVM_INFO axi_driver.sv(129) @ 3855: uvm_test_top.env.inp_agt.inp_drv [AXI_W] WDATA=2eda44d0 WSTRB=9 WVALID=1 WREADY=1
UVM_INFO axi_inp_monitor.sv(73) @ 3865: uvm_test_top.env.inp_agt.inp_mon [AXI_W] WDATA=2eda44d0 WSTRB=9 WVALID=1 WREADY=1
UVM_INFO axi_op_monitor.sv(73) @ 3865: uvm_test_top.env.op_agt.op_mon [OP_W] WVALID=1 WREADY=1 WDATA=2eda44d0 WSTRB=9
UVM_INFO axi_driver.sv(111) @ 3905: uvm_test_top.env.inp_agt.inp_drv [AXI_AW] AWADDR=8 AWPROT=111 AWVALID=1 AWREADY=1
UVM_INFO axi_inp_monitor.sv(64) @ 3915: uvm_test_top.env.inp_agt.inp_mon [AXI_AW] AWADDR=8 AWPROT=111 AWVALID=1 AWREADY=1
UVM_INFO axi_op_monitor.sv(64) @ 3915: uvm_test_top.env.op_agt.op_mon [OP_AW] AWVALID=1 AWREADY=1 AWADDR=8 AWPROT=111
reg_file[0] = c26fb3cd
reg_file[1] = 3ae37096
reg_file[2] = 2e94e6d0
reg_file[3] = 00000000
reg_file[4] = 00000000
reg_file[5] = 00000000
reg_file[6] = 00000000
reg_file[7] = 00000000
reg_file[8] = 00000000
reg_file[9] = 00000000
reg_file[10] = 00000000
reg_file[11] = 00000000
reg_file[12] = 00000000
reg_file[13] = 00000000
reg_file[14] = 00000000
reg_file[15] = 00000000
UVM_INFO axi_driver.sv(145) @ 3925: uvm_test_top.env.inp_agt.inp_drv [AXI_B] BREADY=1 BVALID=1 BRESP=0
UVM_INFO axi_inp_monitor.sv(81) @ 3935: uvm_test_top.env.inp_agt.inp_mon [AXI_B] BREADY=1 BRESP=0 BVALID=1
UVM_INFO axi_subscriber.sv(158) @ 3935: uvm_test_top.env.sub [sub] [DRIVER]:INPUT RECIEVED
UVM_INFO axi_op_monitor.sv(81) @ 3935: uvm_test_top.env.op_agt.op_mon [OP_B] BVALID=1 BREADY=1 BRESP=0
UVM_INFO axi_scoreboard.sv(42) @ 3935: uvm_test_top.env.scb [SCB] 9
UVM_INFO axi_scoreboard.sv(105) @ 3935: uvm_test_top.env.scb [SCB] WRITE ADDRESS PASS: Exp_AWADDR=8 Actual_AWADDR=8
UVM_INFO axi_scoreboard.sv(110) @ 3935: uvm_test_top.env.scb [SCB] WRITE DATA PASS: Exp_WDATA=2eda44d0 Actual_WDATA=2eda44d0
UVM_INFO axi_scoreboard.sv(115) @ 3935: uvm_test_top.env.scb [SCB] WRITE WSTRB PASS: Exp_WSTRB=9 Actual_WSTRB=9
UVM_INFO axi_scoreboard.sv(120) @ 3935: uvm_test_top.env.scb [SCB] WRITE BRESP PASS: Exp_BRESP=0 Actual_BRESP=0
UVM_INFO axi_driver.sv(129) @ 3955: uvm_test_top.env.inp_agt.inp_drv [AXI_W] WDATA=ea9cf950 WSTRB=9 WVALID=1 WREADY=1
UVM_INFO axi_inp_monitor.sv(73) @ 3965: uvm_test_top.env.inp_agt.inp_mon [AXI_W] WDATA=ea9cf950 WSTRB=9 WVALID=1 WREADY=1
UVM_INFO axi_op_monitor.sv(73) @ 3965: uvm_test_top.env.op_agt.op_mon [OP_W] WVALID=1 WREADY=1 WDATA=ea9cf950 WSTRB=9
UVM_INFO axi_driver.sv(111) @ 4005: uvm_test_top.env.inp_agt.inp_drv [AXI_AW] AWADDR=8 AWPROT=11 AWVALID=1 AWREADY=1
UVM_INFO axi_inp_monitor.sv(64) @ 4015: uvm_test_top.env.inp_agt.inp_mon [AXI_AW] AWADDR=8 AWPROT=11 AWVALID=1 AWREADY=1
UVM_INFO axi_op_monitor.sv(64) @ 4015: uvm_test_top.env.op_agt.op_mon [OP_AW] AWVALID=1 AWREADY=1 AWADDR=8 AWPROT=11
reg_file[0] = c26fb3cd
reg_file[1] = 3ae37096
reg_file[2] = ea94e650
reg_file[3] = 00000000
reg_file[4] = 00000000
reg_file[5] = 00000000
reg_file[6] = 00000000
reg_file[7] = 00000000
reg_file[8] = 00000000
reg_file[9] = 00000000
reg_file[10] = 00000000
reg_file[11] = 00000000
reg_file[12] = 00000000
reg_file[13] = 00000000
reg_file[14] = 00000000
reg_file[15] = 00000000
UVM_INFO axi_driver.sv(145) @ 4025: uvm_test_top.env.inp_agt.inp_drv [AXI_B] BREADY=1 BVALID=1 BRESP=0
UVM_INFO axi_inp_monitor.sv(81) @ 4035: uvm_test_top.env.inp_agt.inp_mon [AXI_B] BREADY=1 BRESP=0 BVALID=1
UVM_INFO axi_subscriber.sv(158) @ 4035: uvm_test_top.env.sub [sub] [DRIVER]:INPUT RECIEVED
UVM_INFO axi_op_monitor.sv(81) @ 4035: uvm_test_top.env.op_agt.op_mon [OP_B] BVALID=1 BREADY=1 BRESP=0
UVM_INFO axi_scoreboard.sv(42) @ 4035: uvm_test_top.env.scb [SCB] 9
UVM_INFO axi_scoreboard.sv(105) @ 4035: uvm_test_top.env.scb [SCB] WRITE ADDRESS PASS: Exp_AWADDR=8 Actual_AWADDR=8
UVM_INFO axi_scoreboard.sv(110) @ 4035: uvm_test_top.env.scb [SCB] WRITE DATA PASS: Exp_WDATA=ea9cf950 Actual_WDATA=ea9cf950
UVM_INFO axi_scoreboard.sv(115) @ 4035: uvm_test_top.env.scb [SCB] WRITE WSTRB PASS: Exp_WSTRB=9 Actual_WSTRB=9
UVM_INFO axi_scoreboard.sv(120) @ 4035: uvm_test_top.env.scb [SCB] WRITE BRESP PASS: Exp_BRESP=0 Actual_BRESP=0
UVM_INFO axi_driver.sv(129) @ 4055: uvm_test_top.env.inp_agt.inp_drv [AXI_W] WDATA=b24e3292 WSTRB=4 WVALID=1 WREADY=1
UVM_INFO axi_inp_monitor.sv(73) @ 4065: uvm_test_top.env.inp_agt.inp_mon [AXI_W] WDATA=b24e3292 WSTRB=4 WVALID=1 WREADY=1
UVM_INFO axi_op_monitor.sv(73) @ 4065: uvm_test_top.env.op_agt.op_mon [OP_W] WVALID=1 WREADY=1 WDATA=b24e3292 WSTRB=4
UVM_INFO axi_driver.sv(111) @ 4105: uvm_test_top.env.inp_agt.inp_drv [AXI_AW] AWADDR=4 AWPROT=111 AWVALID=1 AWREADY=1
UVM_INFO axi_inp_monitor.sv(64) @ 4115: uvm_test_top.env.inp_agt.inp_mon [AXI_AW] AWADDR=4 AWPROT=111 AWVALID=1 AWREADY=1
UVM_INFO axi_op_monitor.sv(64) @ 4115: uvm_test_top.env.op_agt.op_mon [OP_AW] AWVALID=1 AWREADY=1 AWADDR=4 AWPROT=111
reg_file[0] = c26fb3cd
reg_file[1] = 3a4e7096
reg_file[2] = ea94e650
reg_file[3] = 00000000
reg_file[4] = 00000000
reg_file[5] = 00000000
reg_file[6] = 00000000
reg_file[7] = 00000000
reg_file[8] = 00000000
reg_file[9] = 00000000
reg_file[10] = 00000000
reg_file[11] = 00000000
reg_file[12] = 00000000
reg_file[13] = 00000000
reg_file[14] = 00000000
reg_file[15] = 00000000
UVM_INFO axi_driver.sv(145) @ 4125: uvm_test_top.env.inp_agt.inp_drv [AXI_B] BREADY=1 BVALID=1 BRESP=0
UVM_INFO axi_inp_monitor.sv(81) @ 4135: uvm_test_top.env.inp_agt.inp_mon [AXI_B] BREADY=1 BRESP=0 BVALID=1
UVM_INFO axi_subscriber.sv(158) @ 4135: uvm_test_top.env.sub [sub] [DRIVER]:INPUT RECIEVED
UVM_INFO axi_op_monitor.sv(81) @ 4135: uvm_test_top.env.op_agt.op_mon [OP_B] BVALID=1 BREADY=1 BRESP=0
UVM_INFO axi_scoreboard.sv(42) @ 4135: uvm_test_top.env.scb [SCB] 4
UVM_INFO axi_scoreboard.sv(105) @ 4135: uvm_test_top.env.scb [SCB] WRITE ADDRESS PASS: Exp_AWADDR=4 Actual_AWADDR=4
UVM_INFO axi_scoreboard.sv(110) @ 4135: uvm_test_top.env.scb [SCB] WRITE DATA PASS: Exp_WDATA=b24e3292 Actual_WDATA=b24e3292
UVM_INFO axi_scoreboard.sv(115) @ 4135: uvm_test_top.env.scb [SCB] WRITE WSTRB PASS: Exp_WSTRB=4 Actual_WSTRB=4
UVM_INFO axi_scoreboard.sv(120) @ 4135: uvm_test_top.env.scb [SCB] WRITE BRESP PASS: Exp_BRESP=0 Actual_BRESP=0
UVM_INFO axi_driver.sv(129) @ 4155: uvm_test_top.env.inp_agt.inp_drv [AXI_W] WDATA=664e5368 WSTRB=0 WVALID=1 WREADY=1
UVM_INFO axi_inp_monitor.sv(73) @ 4165: uvm_test_top.env.inp_agt.inp_mon [AXI_W] WDATA=664e5368 WSTRB=0 WVALID=1 WREADY=1
UVM_INFO axi_op_monitor.sv(73) @ 4165: uvm_test_top.env.op_agt.op_mon [OP_W] WVALID=1 WREADY=1 WDATA=664e5368 WSTRB=0
UVM_INFO axi_driver.sv(111) @ 4205: uvm_test_top.env.inp_agt.inp_drv [AXI_AW] AWADDR=4 AWPROT=11 AWVALID=1 AWREADY=1
UVM_INFO axi_inp_monitor.sv(64) @ 4215: uvm_test_top.env.inp_agt.inp_mon [AXI_AW] AWADDR=4 AWPROT=11 AWVALID=1 AWREADY=1
UVM_INFO axi_op_monitor.sv(64) @ 4215: uvm_test_top.env.op_agt.op_mon [OP_AW] AWVALID=1 AWREADY=1 AWADDR=4 AWPROT=11
reg_file[0] = c26fb3cd
reg_file[1] = 3a4e7096
reg_file[2] = ea94e650
reg_file[3] = 00000000
reg_file[4] = 00000000
reg_file[5] = 00000000
reg_file[6] = 00000000
reg_file[7] = 00000000
reg_file[8] = 00000000
reg_file[9] = 00000000
reg_file[10] = 00000000
reg_file[11] = 00000000
reg_file[12] = 00000000
reg_file[13] = 00000000
reg_file[14] = 00000000
reg_file[15] = 00000000
UVM_INFO axi_driver.sv(145) @ 4225: uvm_test_top.env.inp_agt.inp_drv [AXI_B] BREADY=1 BVALID=1 BRESP=0
UVM_INFO axi_inp_monitor.sv(81) @ 4235: uvm_test_top.env.inp_agt.inp_mon [AXI_B] BREADY=1 BRESP=0 BVALID=1
UVM_INFO axi_subscriber.sv(158) @ 4235: uvm_test_top.env.sub [sub] [DRIVER]:INPUT RECIEVED
UVM_INFO axi_op_monitor.sv(81) @ 4235: uvm_test_top.env.op_agt.op_mon [OP_B] BVALID=1 BREADY=1 BRESP=0
UVM_INFO axi_scoreboard.sv(42) @ 4235: uvm_test_top.env.scb [SCB] 0
UVM_INFO axi_scoreboard.sv(105) @ 4235: uvm_test_top.env.scb [SCB] WRITE ADDRESS PASS: Exp_AWADDR=4 Actual_AWADDR=4
UVM_INFO axi_scoreboard.sv(110) @ 4235: uvm_test_top.env.scb [SCB] WRITE DATA PASS: Exp_WDATA=664e5368 Actual_WDATA=664e5368
UVM_INFO axi_scoreboard.sv(115) @ 4235: uvm_test_top.env.scb [SCB] WRITE WSTRB PASS: Exp_WSTRB=0 Actual_WSTRB=0
UVM_INFO axi_scoreboard.sv(120) @ 4235: uvm_test_top.env.scb [SCB] WRITE BRESP PASS: Exp_BRESP=0 Actual_BRESP=0
UVM_INFO axi_driver.sv(129) @ 4255: uvm_test_top.env.inp_agt.inp_drv [AXI_W] WDATA=fd501f74 WSTRB=0 WVALID=1 WREADY=1
UVM_INFO axi_inp_monitor.sv(73) @ 4265: uvm_test_top.env.inp_agt.inp_mon [AXI_W] WDATA=fd501f74 WSTRB=0 WVALID=1 WREADY=1
UVM_INFO axi_op_monitor.sv(73) @ 4265: uvm_test_top.env.op_agt.op_mon [OP_W] WVALID=1 WREADY=1 WDATA=fd501f74 WSTRB=0
UVM_INFO axi_driver.sv(111) @ 4305: uvm_test_top.env.inp_agt.inp_drv [AXI_AW] AWADDR=4 AWPROT=111 AWVALID=1 AWREADY=1
UVM_INFO axi_inp_monitor.sv(64) @ 4315: uvm_test_top.env.inp_agt.inp_mon [AXI_AW] AWADDR=4 AWPROT=111 AWVALID=1 AWREADY=1
UVM_INFO axi_op_monitor.sv(64) @ 4315: uvm_test_top.env.op_agt.op_mon [OP_AW] AWVALID=1 AWREADY=1 AWADDR=4 AWPROT=111
reg_file[0] = c26fb3cd
reg_file[1] = 3a4e7096
reg_file[2] = ea94e650
reg_file[3] = 00000000
reg_file[4] = 00000000
reg_file[5] = 00000000
reg_file[6] = 00000000
reg_file[7] = 00000000
reg_file[8] = 00000000
reg_file[9] = 00000000
reg_file[10] = 00000000
reg_file[11] = 00000000
reg_file[12] = 00000000
reg_file[13] = 00000000
reg_file[14] = 00000000
reg_file[15] = 00000000
UVM_INFO axi_driver.sv(145) @ 4325: uvm_test_top.env.inp_agt.inp_drv [AXI_B] BREADY=1 BVALID=1 BRESP=0
UVM_INFO axi_inp_monitor.sv(81) @ 4335: uvm_test_top.env.inp_agt.inp_mon [AXI_B] BREADY=1 BRESP=0 BVALID=1
UVM_INFO axi_subscriber.sv(158) @ 4335: uvm_test_top.env.sub [sub] [DRIVER]:INPUT RECIEVED
UVM_INFO axi_op_monitor.sv(81) @ 4335: uvm_test_top.env.op_agt.op_mon [OP_B] BVALID=1 BREADY=1 BRESP=0
UVM_INFO axi_scoreboard.sv(42) @ 4335: uvm_test_top.env.scb [SCB] 0
UVM_INFO axi_scoreboard.sv(105) @ 4335: uvm_test_top.env.scb [SCB] WRITE ADDRESS PASS: Exp_AWADDR=4 Actual_AWADDR=4
UVM_INFO axi_scoreboard.sv(110) @ 4335: uvm_test_top.env.scb [SCB] WRITE DATA PASS: Exp_WDATA=fd501f74 Actual_WDATA=fd501f74
UVM_INFO axi_scoreboard.sv(115) @ 4335: uvm_test_top.env.scb [SCB] WRITE WSTRB PASS: Exp_WSTRB=0 Actual_WSTRB=0
UVM_INFO axi_scoreboard.sv(120) @ 4335: uvm_test_top.env.scb [SCB] WRITE BRESP PASS: Exp_BRESP=0 Actual_BRESP=0
UVM_INFO axi_driver.sv(129) @ 4355: uvm_test_top.env.inp_agt.inp_drv [AXI_W] WDATA=9544ee74 WSTRB=7 WVALID=1 WREADY=1
UVM_INFO axi_inp_monitor.sv(73) @ 4365: uvm_test_top.env.inp_agt.inp_mon [AXI_W] WDATA=9544ee74 WSTRB=7 WVALID=1 WREADY=1
UVM_INFO axi_op_monitor.sv(73) @ 4365: uvm_test_top.env.op_agt.op_mon [OP_W] WVALID=1 WREADY=1 WDATA=9544ee74 WSTRB=7
UVM_INFO axi_driver.sv(111) @ 4405: uvm_test_top.env.inp_agt.inp_drv [AXI_AW] AWADDR=0 AWPROT=0 AWVALID=1 AWREADY=1
UVM_INFO axi_inp_monitor.sv(64) @ 4415: uvm_test_top.env.inp_agt.inp_mon [AXI_AW] AWADDR=0 AWPROT=0 AWVALID=1 AWREADY=1
UVM_INFO axi_op_monitor.sv(64) @ 4415: uvm_test_top.env.op_agt.op_mon [OP_AW] AWVALID=1 AWREADY=1 AWADDR=0 AWPROT=0
reg_file[0] = c244ee74
reg_file[1] = 3a4e7096
reg_file[2] = ea94e650
reg_file[3] = 00000000
reg_file[4] = 00000000
reg_file[5] = 00000000
reg_file[6] = 00000000
reg_file[7] = 00000000
reg_file[8] = 00000000
reg_file[9] = 00000000
reg_file[10] = 00000000
reg_file[11] = 00000000
reg_file[12] = 00000000
reg_file[13] = 00000000
reg_file[14] = 00000000
reg_file[15] = 00000000
UVM_INFO axi_driver.sv(145) @ 4425: uvm_test_top.env.inp_agt.inp_drv [AXI_B] BREADY=1 BVALID=1 BRESP=0
UVM_INFO axi_inp_monitor.sv(81) @ 4435: uvm_test_top.env.inp_agt.inp_mon [AXI_B] BREADY=1 BRESP=0 BVALID=1
UVM_INFO axi_subscriber.sv(158) @ 4435: uvm_test_top.env.sub [sub] [DRIVER]:INPUT RECIEVED
UVM_INFO axi_op_monitor.sv(81) @ 4435: uvm_test_top.env.op_agt.op_mon [OP_B] BVALID=1 BREADY=1 BRESP=0
UVM_INFO axi_scoreboard.sv(42) @ 4435: uvm_test_top.env.scb [SCB] 7
UVM_INFO axi_scoreboard.sv(105) @ 4435: uvm_test_top.env.scb [SCB] WRITE ADDRESS PASS: Exp_AWADDR=0 Actual_AWADDR=0
UVM_INFO axi_scoreboard.sv(110) @ 4435: uvm_test_top.env.scb [SCB] WRITE DATA PASS: Exp_WDATA=9544ee74 Actual_WDATA=9544ee74
UVM_INFO axi_scoreboard.sv(115) @ 4435: uvm_test_top.env.scb [SCB] WRITE WSTRB PASS: Exp_WSTRB=7 Actual_WSTRB=7
UVM_INFO axi_scoreboard.sv(120) @ 4435: uvm_test_top.env.scb [SCB] WRITE BRESP PASS: Exp_BRESP=0 Actual_BRESP=0
UVM_INFO axi_driver.sv(129) @ 4455: uvm_test_top.env.inp_agt.inp_drv [AXI_W] WDATA=8e7168a WSTRB=7 WVALID=1 WREADY=1
UVM_INFO axi_inp_monitor.sv(73) @ 4465: uvm_test_top.env.inp_agt.inp_mon [AXI_W] WDATA=8e7168a WSTRB=7 WVALID=1 WREADY=1
UVM_INFO axi_op_monitor.sv(73) @ 4465: uvm_test_top.env.op_agt.op_mon [OP_W] WVALID=1 WREADY=1 WDATA=8e7168a WSTRB=7
UVM_INFO axi_driver.sv(111) @ 4505: uvm_test_top.env.inp_agt.inp_drv [AXI_AW] AWADDR=4 AWPROT=11 AWVALID=1 AWREADY=1
UVM_INFO axi_inp_monitor.sv(64) @ 4515: uvm_test_top.env.inp_agt.inp_mon [AXI_AW] AWADDR=4 AWPROT=11 AWVALID=1 AWREADY=1
UVM_INFO axi_op_monitor.sv(64) @ 4515: uvm_test_top.env.op_agt.op_mon [OP_AW] AWVALID=1 AWREADY=1 AWADDR=4 AWPROT=11
reg_file[0] = c244ee74
reg_file[1] = 3ae7168a
reg_file[2] = ea94e650
reg_file[3] = 00000000
reg_file[4] = 00000000
reg_file[5] = 00000000
reg_file[6] = 00000000
reg_file[7] = 00000000
reg_file[8] = 00000000
reg_file[9] = 00000000
reg_file[10] = 00000000
reg_file[11] = 00000000
reg_file[12] = 00000000
reg_file[13] = 00000000
reg_file[14] = 00000000
reg_file[15] = 00000000
UVM_INFO axi_driver.sv(145) @ 4525: uvm_test_top.env.inp_agt.inp_drv [AXI_B] BREADY=1 BVALID=1 BRESP=0
UVM_INFO axi_inp_monitor.sv(81) @ 4535: uvm_test_top.env.inp_agt.inp_mon [AXI_B] BREADY=1 BRESP=0 BVALID=1
UVM_INFO axi_subscriber.sv(158) @ 4535: uvm_test_top.env.sub [sub] [DRIVER]:INPUT RECIEVED
UVM_INFO axi_op_monitor.sv(81) @ 4535: uvm_test_top.env.op_agt.op_mon [OP_B] BVALID=1 BREADY=1 BRESP=0
UVM_INFO axi_scoreboard.sv(42) @ 4535: uvm_test_top.env.scb [SCB] 7
UVM_INFO axi_scoreboard.sv(105) @ 4535: uvm_test_top.env.scb [SCB] WRITE ADDRESS PASS: Exp_AWADDR=4 Actual_AWADDR=4
UVM_INFO axi_scoreboard.sv(110) @ 4535: uvm_test_top.env.scb [SCB] WRITE DATA PASS: Exp_WDATA=8e7168a Actual_WDATA=8e7168a
UVM_INFO axi_scoreboard.sv(115) @ 4535: uvm_test_top.env.scb [SCB] WRITE WSTRB PASS: Exp_WSTRB=7 Actual_WSTRB=7
UVM_INFO axi_scoreboard.sv(120) @ 4535: uvm_test_top.env.scb [SCB] WRITE BRESP PASS: Exp_BRESP=0 Actual_BRESP=0
UVM_INFO axi_driver.sv(129) @ 4555: uvm_test_top.env.inp_agt.inp_drv [AXI_W] WDATA=8a89aadf WSTRB=8 WVALID=1 WREADY=1
UVM_INFO axi_inp_monitor.sv(73) @ 4565: uvm_test_top.env.inp_agt.inp_mon [AXI_W] WDATA=8a89aadf WSTRB=8 WVALID=1 WREADY=1
UVM_INFO axi_op_monitor.sv(73) @ 4565: uvm_test_top.env.op_agt.op_mon [OP_W] WVALID=1 WREADY=1 WDATA=8a89aadf WSTRB=8
UVM_INFO axi_driver.sv(111) @ 4605: uvm_test_top.env.inp_agt.inp_drv [AXI_AW] AWADDR=4 AWPROT=10 AWVALID=1 AWREADY=1
UVM_INFO axi_inp_monitor.sv(64) @ 4615: uvm_test_top.env.inp_agt.inp_mon [AXI_AW] AWADDR=4 AWPROT=10 AWVALID=1 AWREADY=1
UVM_INFO axi_op_monitor.sv(64) @ 4615: uvm_test_top.env.op_agt.op_mon [OP_AW] AWVALID=1 AWREADY=1 AWADDR=4 AWPROT=10
reg_file[0] = c244ee74
reg_file[1] = 8ae7168a
reg_file[2] = ea94e650
reg_file[3] = 00000000
reg_file[4] = 00000000
reg_file[5] = 00000000
reg_file[6] = 00000000
reg_file[7] = 00000000
reg_file[8] = 00000000
reg_file[9] = 00000000
reg_file[10] = 00000000
reg_file[11] = 00000000
reg_file[12] = 00000000
reg_file[13] = 00000000
reg_file[14] = 00000000
reg_file[15] = 00000000
UVM_INFO axi_driver.sv(145) @ 4625: uvm_test_top.env.inp_agt.inp_drv [AXI_B] BREADY=1 BVALID=1 BRESP=0
UVM_INFO axi_inp_monitor.sv(81) @ 4635: uvm_test_top.env.inp_agt.inp_mon [AXI_B] BREADY=1 BRESP=0 BVALID=1
UVM_INFO axi_subscriber.sv(158) @ 4635: uvm_test_top.env.sub [sub] [DRIVER]:INPUT RECIEVED
UVM_INFO axi_op_monitor.sv(81) @ 4635: uvm_test_top.env.op_agt.op_mon [OP_B] BVALID=1 BREADY=1 BRESP=0
UVM_INFO axi_scoreboard.sv(42) @ 4635: uvm_test_top.env.scb [SCB] 8
UVM_INFO axi_scoreboard.sv(105) @ 4635: uvm_test_top.env.scb [SCB] WRITE ADDRESS PASS: Exp_AWADDR=4 Actual_AWADDR=4
UVM_INFO axi_scoreboard.sv(110) @ 4635: uvm_test_top.env.scb [SCB] WRITE DATA PASS: Exp_WDATA=8a89aadf Actual_WDATA=8a89aadf
UVM_INFO axi_scoreboard.sv(115) @ 4635: uvm_test_top.env.scb [SCB] WRITE WSTRB PASS: Exp_WSTRB=8 Actual_WSTRB=8
UVM_INFO axi_scoreboard.sv(120) @ 4635: uvm_test_top.env.scb [SCB] WRITE BRESP PASS: Exp_BRESP=0 Actual_BRESP=0
UVM_INFO axi_driver.sv(129) @ 4655: uvm_test_top.env.inp_agt.inp_drv [AXI_W] WDATA=632f6569 WSTRB=e WVALID=1 WREADY=1
UVM_INFO axi_inp_monitor.sv(73) @ 4665: uvm_test_top.env.inp_agt.inp_mon [AXI_W] WDATA=632f6569 WSTRB=e WVALID=1 WREADY=1
UVM_INFO axi_op_monitor.sv(73) @ 4665: uvm_test_top.env.op_agt.op_mon [OP_W] WVALID=1 WREADY=1 WDATA=632f6569 WSTRB=e
UVM_INFO axi_driver.sv(111) @ 4705: uvm_test_top.env.inp_agt.inp_drv [AXI_AW] AWADDR=0 AWPROT=100 AWVALID=1 AWREADY=1
UVM_INFO axi_inp_monitor.sv(64) @ 4715: uvm_test_top.env.inp_agt.inp_mon [AXI_AW] AWADDR=0 AWPROT=100 AWVALID=1 AWREADY=1
UVM_INFO axi_op_monitor.sv(64) @ 4715: uvm_test_top.env.op_agt.op_mon [OP_AW] AWVALID=1 AWREADY=1 AWADDR=0 AWPROT=100
reg_file[0] = 632f6574
reg_file[1] = 8ae7168a
reg_file[2] = ea94e650
reg_file[3] = 00000000
reg_file[4] = 00000000
reg_file[5] = 00000000
reg_file[6] = 00000000
reg_file[7] = 00000000
reg_file[8] = 00000000
reg_file[9] = 00000000
reg_file[10] = 00000000
reg_file[11] = 00000000
reg_file[12] = 00000000
reg_file[13] = 00000000
reg_file[14] = 00000000
reg_file[15] = 00000000
UVM_INFO axi_driver.sv(145) @ 4725: uvm_test_top.env.inp_agt.inp_drv [AXI_B] BREADY=1 BVALID=1 BRESP=0
UVM_INFO axi_inp_monitor.sv(81) @ 4735: uvm_test_top.env.inp_agt.inp_mon [AXI_B] BREADY=1 BRESP=0 BVALID=1
UVM_INFO axi_subscriber.sv(158) @ 4735: uvm_test_top.env.sub [sub] [DRIVER]:INPUT RECIEVED
UVM_INFO axi_op_monitor.sv(81) @ 4735: uvm_test_top.env.op_agt.op_mon [OP_B] BVALID=1 BREADY=1 BRESP=0
UVM_INFO axi_scoreboard.sv(42) @ 4735: uvm_test_top.env.scb [SCB] e
