Command: /fetools/work_area/frontend/Batch_11/spoorthibhat/uvm/projects/AXI_Slave_Verification/src/work/simv +UVM_TESTNAME=axi_write_da_test +UVM_VERBOSITY=UVM_HIGH +ntb_random_seed=17719 -cm line+cond+fsm+tgl+branch+assert -cm_dir work/regression.vdb -cm_name axi_write_da_test_17719 -l work/logs/axi_write_da_test_17719.log +UVM_NO_RELNOTES
Chronologic VCS simulator copyright 1991-2020
Contains Synopsys proprietary information.
Compiler version Q-2020.03-SP2-8_Full64; Runtime version Q-2020.03-SP2-8_Full64;  Sep 18 16:22 2026
----------------------------------------------------------------
UVM-1.1d.Synopsys
(C) 2007-2013 Mentor Graphics Corporation
(C) 2007-2013 Cadence Design Systems, Inc.
(C) 2006-2013 Synopsys, Inc.
(C) 2011-2013 Cypress Semiconductor Corp.
----------------------------------------------------------------
### TOP INITIAL START : time=0
### AFTER CONFIG SET : time=0
UVM_INFO @ 0: reporter [RNTST] Running test axi_write_da_test...
UVM_INFO @ 0: reporter [UVMTOP] UVM testbench topology:
-----------------------------------------------------------------------
Name                            Type                        Size  Value
-----------------------------------------------------------------------
uvm_test_top                    axi_write_da_test           -     @477 
  env                           axi_env                     -     @491 
    inp_agt                     axi_inp_agent               -     @500 
      inp_drv                   axi_driver                  -     @1030
        rd_prt                  uvm_seq_item_pull_port      -     @1056
        rsp_port                uvm_analysis_port           -     @1047
        seq_item_port           uvm_seq_item_pull_port      -     @1038
      inp_mon                   axi_inp_monitor             -     @758 
        inp_monitor_port_read   uvm_analysis_port           -     @775 
        inp_monitor_port_write  uvm_analysis_port           -     @766 
      rd_sqr                    axi_sequencer               -     @907 
        rsp_export              uvm_analysis_export         -     @915 
        seq_item_export         uvm_seq_item_pull_imp       -     @1021
        arbitration_queue       array                       0     -    
        lock_queue              array                       0     -    
        num_last_reqs           integral                    32    'd1  
        num_last_rsps           integral                    32    'd1  
      wr_sqr                    axi_sequencer               -     @784 
        rsp_export              uvm_analysis_export         -     @792 
        seq_item_export         uvm_seq_item_pull_imp       -     @898 
        arbitration_queue       array                       0     -    
        lock_queue              array                       0     -    
        num_last_reqs           integral                    32    'd1  
        num_last_rsps           integral                    32    'd1  
    op_agt                      axi_op_agent                -     @508 
      op_mon                    axi_op_monitor              -     @1084
        op_m_port_read          uvm_analysis_port           -     @1101
        op_m_port_write         uvm_analysis_port           -     @1092
    scb                         axi_scoreboard              -     @516 
      ip_mon_fifo_read          uvm_tlm_analysis_fifo #(T)  -     @577 
        analysis_export         uvm_analysis_imp            -     @621 
        get_ap                  uvm_analysis_port           -     @612 
        get_peek_export         uvm_get_peek_imp            -     @594 
        put_ap                  uvm_analysis_port           -     @603 
        put_export              uvm_put_imp                 -     @585 
      ip_mon_fifo_write         uvm_tlm_analysis_fifo #(T)  -     @524 
        analysis_export         uvm_analysis_imp            -     @568 
        get_ap                  uvm_analysis_port           -     @559 
        get_peek_export         uvm_get_peek_imp            -     @541 
        put_ap                  uvm_analysis_port           -     @550 
        put_export              uvm_put_imp                 -     @532 
      op_mon_fifo_read          uvm_tlm_analysis_fifo #(T)  -     @683 
        analysis_export         uvm_analysis_imp            -     @727 
        get_ap                  uvm_analysis_port           -     @718 
        get_peek_export         uvm_get_peek_imp            -     @700 
        put_ap                  uvm_analysis_port           -     @709 
        put_export              uvm_put_imp                 -     @691 
      op_mon_fifo_write         uvm_tlm_analysis_fifo #(T)  -     @630 
        analysis_export         uvm_analysis_imp            -     @674 
        get_ap                  uvm_analysis_port           -     @665 
        get_peek_export         uvm_get_peek_imp            -     @647 
        put_ap                  uvm_analysis_port           -     @656 
        put_export              uvm_put_imp                 -     @638 
    sub                         axi_subscriber              -     @736 
      analysis_imp              uvm_analysis_imp            -     @744 
-----------------------------------------------------------------------

UVM_INFO axi_driver.sv(30) @ 0: uvm_test_top.env.inp_agt.inp_drv [DRV] Sequence Body started
UVM_INFO axi_driver.sv(129) @ 45: uvm_test_top.env.inp_agt.inp_drv [AXI_W] WDATA=61104206 WSTRB=f WVALID=1 WREADY=1
UVM_INFO axi_inp_monitor.sv(73) @ 55: uvm_test_top.env.inp_agt.inp_mon [AXI_W] WDATA=61104206 WSTRB=f WVALID=1 WREADY=1
UVM_INFO axi_op_monitor.sv(73) @ 55: uvm_test_top.env.op_agt.op_mon [OP_W] WVALID=1 WREADY=1 WDATA=61104206 WSTRB=f
UVM_INFO axi_driver.sv(111) @ 95: uvm_test_top.env.inp_agt.inp_drv [AXI_AW] AWADDR=8 AWPROT=100 AWVALID=1 AWREADY=1
UVM_INFO axi_inp_monitor.sv(64) @ 105: uvm_test_top.env.inp_agt.inp_mon [AXI_AW] AWADDR=8 AWPROT=100 AWVALID=1 AWREADY=1
UVM_INFO axi_op_monitor.sv(64) @ 105: uvm_test_top.env.op_agt.op_mon [OP_AW] AWVALID=1 AWREADY=1 AWADDR=8 AWPROT=100
reg_file[0] = 00000000
reg_file[1] = 00000000
reg_file[2] = 61104206
reg_file[3] = 00000000
reg_file[4] = 00000000
reg_file[5] = 00000000
reg_file[6] = 00000000
reg_file[7] = 00000000
reg_file[8] = 00000000
reg_file[9] = 00000000
reg_file[10] = 00000000
reg_file[11] = 00000000
reg_file[12] = 00000000
reg_file[13] = 00000000
reg_file[14] = 00000000
reg_file[15] = 00000000
UVM_INFO axi_driver.sv(145) @ 115: uvm_test_top.env.inp_agt.inp_drv [AXI_B] BREADY=1 BVALID=1 BRESP=0
UVM_INFO axi_inp_monitor.sv(81) @ 125: uvm_test_top.env.inp_agt.inp_mon [AXI_B] BREADY=1 BRESP=0 BVALID=1
UVM_INFO axi_subscriber.sv(158) @ 125: uvm_test_top.env.sub [sub] [DRIVER]:INPUT RECIEVED
UVM_INFO axi_op_monitor.sv(81) @ 125: uvm_test_top.env.op_agt.op_mon [OP_B] BVALID=1 BREADY=1 BRESP=0
UVM_INFO axi_scoreboard.sv(42) @ 125: uvm_test_top.env.scb [SCB] f
UVM_INFO axi_scoreboard.sv(105) @ 125: uvm_test_top.env.scb [SCB] WRITE ADDRESS PASS: Exp_AWADDR=8 Actual_AWADDR=8
UVM_INFO axi_scoreboard.sv(110) @ 125: uvm_test_top.env.scb [SCB] WRITE DATA PASS: Exp_WDATA=61104206 Actual_WDATA=61104206
UVM_INFO axi_scoreboard.sv(115) @ 125: uvm_test_top.env.scb [SCB] WRITE WSTRB PASS: Exp_WSTRB=f Actual_WSTRB=f
UVM_INFO axi_scoreboard.sv(120) @ 125: uvm_test_top.env.scb [SCB] WRITE BRESP PASS: Exp_BRESP=0 Actual_BRESP=0
UVM_INFO axi_driver.sv(129) @ 155: uvm_test_top.env.inp_agt.inp_drv [AXI_W] WDATA=ccefee91 WSTRB=7 WVALID=1 WREADY=1
UVM_INFO axi_inp_monitor.sv(73) @ 165: uvm_test_top.env.inp_agt.inp_mon [AXI_W] WDATA=ccefee91 WSTRB=7 WVALID=1 WREADY=1
UVM_INFO axi_op_monitor.sv(73) @ 165: uvm_test_top.env.op_agt.op_mon [OP_W] WVALID=1 WREADY=1 WDATA=ccefee91 WSTRB=7
UVM_INFO axi_driver.sv(111) @ 205: uvm_test_top.env.inp_agt.inp_drv [AXI_AW] AWADDR=4 AWPROT=10 AWVALID=1 AWREADY=1
UVM_INFO axi_inp_monitor.sv(64) @ 215: uvm_test_top.env.inp_agt.inp_mon [AXI_AW] AWADDR=4 AWPROT=10 AWVALID=1 AWREADY=1
UVM_INFO axi_op_monitor.sv(64) @ 215: uvm_test_top.env.op_agt.op_mon [OP_AW] AWVALID=1 AWREADY=1 AWADDR=4 AWPROT=10
reg_file[0] = 00000000
reg_file[1] = 00efee91
reg_file[2] = 00000000
reg_file[3] = 00000000
reg_file[4] = 00000000
reg_file[5] = 00000000
reg_file[6] = 00000000
reg_file[7] = 00000000
reg_file[8] = 00000000
reg_file[9] = 00000000
reg_file[10] = 00000000
reg_file[11] = 00000000
reg_file[12] = 00000000
reg_file[13] = 00000000
reg_file[14] = 00000000
reg_file[15] = 00000000
UVM_INFO axi_driver.sv(145) @ 225: uvm_test_top.env.inp_agt.inp_drv [AXI_B] BREADY=1 BVALID=1 BRESP=0
UVM_INFO axi_inp_monitor.sv(81) @ 235: uvm_test_top.env.inp_agt.inp_mon [AXI_B] BREADY=1 BRESP=0 BVALID=1
UVM_INFO axi_subscriber.sv(158) @ 235: uvm_test_top.env.sub [sub] [DRIVER]:INPUT RECIEVED
UVM_INFO axi_op_monitor.sv(81) @ 235: uvm_test_top.env.op_agt.op_mon [OP_B] BVALID=1 BREADY=1 BRESP=0
UVM_INFO axi_scoreboard.sv(42) @ 235: uvm_test_top.env.scb [SCB] 7
UVM_INFO axi_scoreboard.sv(105) @ 235: uvm_test_top.env.scb [SCB] WRITE ADDRESS PASS: Exp_AWADDR=4 Actual_AWADDR=4
UVM_INFO axi_scoreboard.sv(110) @ 235: uvm_test_top.env.scb [SCB] WRITE DATA PASS: Exp_WDATA=ccefee91 Actual_WDATA=ccefee91
UVM_INFO axi_scoreboard.sv(115) @ 235: uvm_test_top.env.scb [SCB] WRITE WSTRB PASS: Exp_WSTRB=7 Actual_WSTRB=7
UVM_INFO axi_scoreboard.sv(120) @ 235: uvm_test_top.env.scb [SCB] WRITE BRESP PASS: Exp_BRESP=0 Actual_BRESP=0
UVM_INFO axi_driver.sv(129) @ 255: uvm_test_top.env.inp_agt.inp_drv [AXI_W] WDATA=bc8d60c WSTRB=f WVALID=1 WREADY=1
UVM_INFO axi_inp_monitor.sv(73) @ 265: uvm_test_top.env.inp_agt.inp_mon [AXI_W] WDATA=bc8d60c WSTRB=f WVALID=1 WREADY=1
UVM_INFO axi_op_monitor.sv(73) @ 265: uvm_test_top.env.op_agt.op_mon [OP_W] WVALID=1 WREADY=1 WDATA=bc8d60c WSTRB=f
UVM_INFO axi_driver.sv(111) @ 305: uvm_test_top.env.inp_agt.inp_drv [AXI_AW] AWADDR=0 AWPROT=1 AWVALID=1 AWREADY=1
UVM_INFO axi_inp_monitor.sv(64) @ 315: uvm_test_top.env.inp_agt.inp_mon [AXI_AW] AWADDR=0 AWPROT=1 AWVALID=1 AWREADY=1
UVM_INFO axi_op_monitor.sv(64) @ 315: uvm_test_top.env.op_agt.op_mon [OP_AW] AWVALID=1 AWREADY=1 AWADDR=0 AWPROT=1
reg_file[0] = 0bc8d60c
reg_file[1] = 00efee91
reg_file[2] = 00000000
reg_file[3] = 00000000
reg_file[4] = 00000000
reg_file[5] = 00000000
reg_file[6] = 00000000
reg_file[7] = 00000000
reg_file[8] = 00000000
reg_file[9] = 00000000
reg_file[10] = 00000000
reg_file[11] = 00000000
reg_file[12] = 00000000
reg_file[13] = 00000000
reg_file[14] = 00000000
reg_file[15] = 00000000
UVM_INFO axi_driver.sv(145) @ 325: uvm_test_top.env.inp_agt.inp_drv [AXI_B] BREADY=1 BVALID=1 BRESP=0
UVM_INFO axi_inp_monitor.sv(81) @ 335: uvm_test_top.env.inp_agt.inp_mon [AXI_B] BREADY=1 BRESP=0 BVALID=1
UVM_INFO axi_subscriber.sv(158) @ 335: uvm_test_top.env.sub [sub] [DRIVER]:INPUT RECIEVED
UVM_INFO axi_op_monitor.sv(81) @ 335: uvm_test_top.env.op_agt.op_mon [OP_B] BVALID=1 BREADY=1 BRESP=0
UVM_INFO axi_scoreboard.sv(42) @ 335: uvm_test_top.env.scb [SCB] f
UVM_INFO axi_scoreboard.sv(105) @ 335: uvm_test_top.env.scb [SCB] WRITE ADDRESS PASS: Exp_AWADDR=0 Actual_AWADDR=0
UVM_INFO axi_scoreboard.sv(110) @ 335: uvm_test_top.env.scb [SCB] WRITE DATA PASS: Exp_WDATA=bc8d60c Actual_WDATA=bc8d60c
UVM_INFO axi_scoreboard.sv(115) @ 335: uvm_test_top.env.scb [SCB] WRITE WSTRB PASS: Exp_WSTRB=f Actual_WSTRB=f
UVM_INFO axi_scoreboard.sv(120) @ 335: uvm_test_top.env.scb [SCB] WRITE BRESP PASS: Exp_BRESP=0 Actual_BRESP=0
UVM_INFO axi_driver.sv(129) @ 355: uvm_test_top.env.inp_agt.inp_drv [AXI_W] WDATA=199620e9 WSTRB=f WVALID=1 WREADY=1
UVM_INFO axi_inp_monitor.sv(73) @ 365: uvm_test_top.env.inp_agt.inp_mon [AXI_W] WDATA=199620e9 WSTRB=f WVALID=1 WREADY=1
UVM_INFO axi_op_monitor.sv(73) @ 365: uvm_test_top.env.op_agt.op_mon [OP_W] WVALID=1 WREADY=1 WDATA=199620e9 WSTRB=f
UVM_INFO axi_driver.sv(111) @ 405: uvm_test_top.env.inp_agt.inp_drv [AXI_AW] AWADDR=4 AWPROT=10 AWVALID=1 AWREADY=1
UVM_INFO axi_inp_monitor.sv(64) @ 415: uvm_test_top.env.inp_agt.inp_mon [AXI_AW] AWADDR=4 AWPROT=10 AWVALID=1 AWREADY=1
UVM_INFO axi_op_monitor.sv(64) @ 415: uvm_test_top.env.op_agt.op_mon [OP_AW] AWVALID=1 AWREADY=1 AWADDR=4 AWPROT=10
reg_file[0] = 0bc8d60c
reg_file[1] = 199620e9
reg_file[2] = 00000000
reg_file[3] = 00000000
reg_file[4] = 00000000
reg_file[5] = 00000000
reg_file[6] = 00000000
reg_file[7] = 00000000
reg_file[8] = 00000000
reg_file[9] = 00000000
reg_file[10] = 00000000
reg_file[11] = 00000000
reg_file[12] = 00000000
reg_file[13] = 00000000
reg_file[14] = 00000000
reg_file[15] = 00000000
UVM_INFO axi_driver.sv(145) @ 425: uvm_test_top.env.inp_agt.inp_drv [AXI_B] BREADY=1 BVALID=1 BRESP=0
UVM_INFO axi_inp_monitor.sv(81) @ 435: uvm_test_top.env.inp_agt.inp_mon [AXI_B] BREADY=1 BRESP=0 BVALID=1
UVM_INFO axi_subscriber.sv(158) @ 435: uvm_test_top.env.sub [sub] [DRIVER]:INPUT RECIEVED
UVM_INFO axi_op_monitor.sv(81) @ 435: uvm_test_top.env.op_agt.op_mon [OP_B] BVALID=1 BREADY=1 BRESP=0
UVM_INFO axi_scoreboard.sv(42) @ 435: uvm_test_top.env.scb [SCB] f
UVM_INFO axi_scoreboard.sv(105) @ 435: uvm_test_top.env.scb [SCB] WRITE ADDRESS PASS: Exp_AWADDR=4 Actual_AWADDR=4
UVM_INFO axi_scoreboard.sv(110) @ 435: uvm_test_top.env.scb [SCB] WRITE DATA PASS: Exp_WDATA=199620e9 Actual_WDATA=199620e9
UVM_INFO axi_scoreboard.sv(115) @ 435: uvm_test_top.env.scb [SCB] WRITE WSTRB PASS: Exp_WSTRB=f Actual_WSTRB=f
UVM_INFO axi_scoreboard.sv(120) @ 435: uvm_test_top.env.scb [SCB] WRITE BRESP PASS: Exp_BRESP=0 Actual_BRESP=0
UVM_INFO axi_driver.sv(129) @ 455: uvm_test_top.env.inp_agt.inp_drv [AXI_W] WDATA=be93652e WSTRB=b WVALID=1 WREADY=1
UVM_INFO axi_inp_monitor.sv(73) @ 465: uvm_test_top.env.inp_agt.inp_mon [AXI_W] WDATA=be93652e WSTRB=b WVALID=1 WREADY=1
UVM_INFO axi_op_monitor.sv(73) @ 465: uvm_test_top.env.op_agt.op_mon [OP_W] WVALID=1 WREADY=1 WDATA=be93652e WSTRB=b
UVM_INFO axi_driver.sv(111) @ 505: uvm_test_top.env.inp_agt.inp_drv [AXI_AW] AWADDR=0 AWPROT=10 AWVALID=1 AWREADY=1
UVM_INFO axi_inp_monitor.sv(64) @ 515: uvm_test_top.env.inp_agt.inp_mon [AXI_AW] AWADDR=0 AWPROT=10 AWVALID=1 AWREADY=1
UVM_INFO axi_op_monitor.sv(64) @ 515: uvm_test_top.env.op_agt.op_mon [OP_AW] AWVALID=1 AWREADY=1 AWADDR=0 AWPROT=10
reg_file[0] = bec8652e
reg_file[1] = 199620e9
reg_file[2] = 00000000
reg_file[3] = 00000000
reg_file[4] = 00000000
reg_file[5] = 00000000
reg_file[6] = 00000000
reg_file[7] = 00000000
reg_file[8] = 00000000
reg_file[9] = 00000000
reg_file[10] = 00000000
reg_file[11] = 00000000
reg_file[12] = 00000000
reg_file[13] = 00000000
reg_file[14] = 00000000
reg_file[15] = 00000000
UVM_INFO axi_driver.sv(145) @ 525: uvm_test_top.env.inp_agt.inp_drv [AXI_B] BREADY=1 BVALID=1 BRESP=0
UVM_INFO axi_inp_monitor.sv(81) @ 535: uvm_test_top.env.inp_agt.inp_mon [AXI_B] BREADY=1 BRESP=0 BVALID=1
UVM_INFO axi_subscriber.sv(158) @ 535: uvm_test_top.env.sub [sub] [DRIVER]:INPUT RECIEVED
UVM_INFO axi_op_monitor.sv(81) @ 535: uvm_test_top.env.op_agt.op_mon [OP_B] BVALID=1 BREADY=1 BRESP=0
UVM_INFO axi_scoreboard.sv(42) @ 535: uvm_test_top.env.scb [SCB] b
UVM_INFO axi_scoreboard.sv(105) @ 535: uvm_test_top.env.scb [SCB] WRITE ADDRESS PASS: Exp_AWADDR=0 Actual_AWADDR=0
UVM_INFO axi_scoreboard.sv(110) @ 535: uvm_test_top.env.scb [SCB] WRITE DATA PASS: Exp_WDATA=be93652e Actual_WDATA=be93652e
UVM_INFO axi_scoreboard.sv(115) @ 535: uvm_test_top.env.scb [SCB] WRITE WSTRB PASS: Exp_WSTRB=b Actual_WSTRB=b
UVM_INFO axi_scoreboard.sv(120) @ 535: uvm_test_top.env.scb [SCB] WRITE BRESP PASS: Exp_BRESP=0 Actual_BRESP=0
UVM_INFO axi_driver.sv(129) @ 555: uvm_test_top.env.inp_agt.inp_drv [AXI_W] WDATA=f478125f WSTRB=7 WVALID=1 WREADY=1
UVM_INFO axi_inp_monitor.sv(73) @ 565: uvm_test_top.env.inp_agt.inp_mon [AXI_W] WDATA=f478125f WSTRB=7 WVALID=1 WREADY=1
UVM_INFO axi_op_monitor.sv(73) @ 565: uvm_test_top.env.op_agt.op_mon [OP_W] WVALID=1 WREADY=1 WDATA=f478125f WSTRB=7
UVM_INFO axi_driver.sv(111) @ 605: uvm_test_top.env.inp_agt.inp_drv [AXI_AW] AWADDR=8 AWPROT=110 AWVALID=1 AWREADY=1
UVM_INFO axi_inp_monitor.sv(64) @ 615: uvm_test_top.env.inp_agt.inp_mon [AXI_AW] AWADDR=8 AWPROT=110 AWVALID=1 AWREADY=1
UVM_INFO axi_op_monitor.sv(64) @ 615: uvm_test_top.env.op_agt.op_mon [OP_AW] AWVALID=1 AWREADY=1 AWADDR=8 AWPROT=110
reg_file[0] = bec8652e
reg_file[1] = 199620e9
reg_file[2] = 0078125f
reg_file[3] = 00000000
reg_file[4] = 00000000
reg_file[5] = 00000000
reg_file[6] = 00000000
reg_file[7] = 00000000
reg_file[8] = 00000000
reg_file[9] = 00000000
reg_file[10] = 00000000
reg_file[11] = 00000000
reg_file[12] = 00000000
reg_file[13] = 00000000
reg_file[14] = 00000000
reg_file[15] = 00000000
UVM_INFO axi_driver.sv(145) @ 625: uvm_test_top.env.inp_agt.inp_drv [AXI_B] BREADY=1 BVALID=1 BRESP=0
UVM_INFO axi_inp_monitor.sv(81) @ 635: uvm_test_top.env.inp_agt.inp_mon [AXI_B] BREADY=1 BRESP=0 BVALID=1
UVM_INFO axi_subscriber.sv(158) @ 635: uvm_test_top.env.sub [sub] [DRIVER]:INPUT RECIEVED
UVM_INFO axi_op_monitor.sv(81) @ 635: uvm_test_top.env.op_agt.op_mon [OP_B] BVALID=1 BREADY=1 BRESP=0
UVM_INFO axi_scoreboard.sv(42) @ 635: uvm_test_top.env.scb [SCB] 7
UVM_INFO axi_scoreboard.sv(105) @ 635: uvm_test_top.env.scb [SCB] WRITE ADDRESS PASS: Exp_AWADDR=8 Actual_AWADDR=8
UVM_INFO axi_scoreboard.sv(110) @ 635: uvm_test_top.env.scb [SCB] WRITE DATA PASS: Exp_WDATA=f478125f Actual_WDATA=f478125f
UVM_INFO axi_scoreboard.sv(115) @ 635: uvm_test_top.env.scb [SCB] WRITE WSTRB PASS: Exp_WSTRB=7 Actual_WSTRB=7
UVM_INFO axi_scoreboard.sv(120) @ 635: uvm_test_top.env.scb [SCB] WRITE BRESP PASS: Exp_BRESP=0 Actual_BRESP=0
UVM_INFO axi_driver.sv(129) @ 655: uvm_test_top.env.inp_agt.inp_drv [AXI_W] WDATA=1f66aca0 WSTRB=c WVALID=1 WREADY=1
UVM_INFO axi_inp_monitor.sv(73) @ 665: uvm_test_top.env.inp_agt.inp_mon [AXI_W] WDATA=1f66aca0 WSTRB=c WVALID=1 WREADY=1
UVM_INFO axi_op_monitor.sv(73) @ 665: uvm_test_top.env.op_agt.op_mon [OP_W] WVALID=1 WREADY=1 WDATA=1f66aca0 WSTRB=c
UVM_INFO axi_driver.sv(111) @ 705: uvm_test_top.env.inp_agt.inp_drv [AXI_AW] AWADDR=8 AWPROT=10 AWVALID=1 AWREADY=1
UVM_INFO axi_inp_monitor.sv(64) @ 715: uvm_test_top.env.inp_agt.inp_mon [AXI_AW] AWADDR=8 AWPROT=10 AWVALID=1 AWREADY=1
UVM_INFO axi_op_monitor.sv(64) @ 715: uvm_test_top.env.op_agt.op_mon [OP_AW] AWVALID=1 AWREADY=1 AWADDR=8 AWPROT=10
reg_file[0] = bec8652e
reg_file[1] = 199620e9
reg_file[2] = 1f66125f
reg_file[3] = 00000000
reg_file[4] = 00000000
reg_file[5] = 00000000
reg_file[6] = 00000000
reg_file[7] = 00000000
reg_file[8] = 00000000
reg_file[9] = 00000000
reg_file[10] = 00000000
reg_file[11] = 00000000
reg_file[12] = 00000000
reg_file[13] = 00000000
reg_file[14] = 00000000
reg_file[15] = 00000000
UVM_INFO axi_driver.sv(145) @ 725: uvm_test_top.env.inp_agt.inp_drv [AXI_B] BREADY=1 BVALID=1 BRESP=0
UVM_INFO axi_inp_monitor.sv(81) @ 735: uvm_test_top.env.inp_agt.inp_mon [AXI_B] BREADY=1 BRESP=0 BVALID=1
UVM_INFO axi_subscriber.sv(158) @ 735: uvm_test_top.env.sub [sub] [DRIVER]:INPUT RECIEVED
UVM_INFO axi_op_monitor.sv(81) @ 735: uvm_test_top.env.op_agt.op_mon [OP_B] BVALID=1 BREADY=1 BRESP=0
UVM_INFO axi_scoreboard.sv(42) @ 735: uvm_test_top.env.scb [SCB] c
UVM_INFO axi_scoreboard.sv(105) @ 735: uvm_test_top.env.scb [SCB] WRITE ADDRESS PASS: Exp_AWADDR=8 Actual_AWADDR=8
UVM_INFO axi_scoreboard.sv(110) @ 735: uvm_test_top.env.scb [SCB] WRITE DATA PASS: Exp_WDATA=1f66aca0 Actual_WDATA=1f66aca0
UVM_INFO axi_scoreboard.sv(115) @ 735: uvm_test_top.env.scb [SCB] WRITE WSTRB PASS: Exp_WSTRB=c Actual_WSTRB=c
UVM_INFO axi_scoreboard.sv(120) @ 735: uvm_test_top.env.scb [SCB] WRITE BRESP PASS: Exp_BRESP=0 Actual_BRESP=0
UVM_INFO axi_driver.sv(129) @ 755: uvm_test_top.env.inp_agt.inp_drv [AXI_W] WDATA=84fbc45c WSTRB=3 WVALID=1 WREADY=1
UVM_INFO axi_inp_monitor.sv(73) @ 765: uvm_test_top.env.inp_agt.inp_mon [AXI_W] WDATA=84fbc45c WSTRB=3 WVALID=1 WREADY=1
UVM_INFO axi_op_monitor.sv(73) @ 765: uvm_test_top.env.op_agt.op_mon [OP_W] WVALID=1 WREADY=1 WDATA=84fbc45c WSTRB=3
UVM_INFO axi_driver.sv(111) @ 805: uvm_test_top.env.inp_agt.inp_drv [AXI_AW] AWADDR=8 AWPROT=110 AWVALID=1 AWREADY=1
UVM_INFO axi_inp_monitor.sv(64) @ 815: uvm_test_top.env.inp_agt.inp_mon [AXI_AW] AWADDR=8 AWPROT=110 AWVALID=1 AWREADY=1
UVM_INFO axi_op_monitor.sv(64) @ 815: uvm_test_top.env.op_agt.op_mon [OP_AW] AWVALID=1 AWREADY=1 AWADDR=8 AWPROT=110
reg_file[0] = bec8652e
reg_file[1] = 199620e9
reg_file[2] = 1f66c45c
reg_file[3] = 00000000
reg_file[4] = 00000000
reg_file[5] = 00000000
reg_file[6] = 00000000
reg_file[7] = 00000000
reg_file[8] = 00000000
reg_file[9] = 00000000
reg_file[10] = 00000000
reg_file[11] = 00000000
reg_file[12] = 00000000
reg_file[13] = 00000000
reg_file[14] = 00000000
reg_file[15] = 00000000
UVM_INFO axi_driver.sv(145) @ 825: uvm_test_top.env.inp_agt.inp_drv [AXI_B] BREADY=1 BVALID=1 BRESP=0
UVM_INFO axi_inp_monitor.sv(81) @ 835: uvm_test_top.env.inp_agt.inp_mon [AXI_B] BREADY=1 BRESP=0 BVALID=1
UVM_INFO axi_subscriber.sv(158) @ 835: uvm_test_top.env.sub [sub] [DRIVER]:INPUT RECIEVED
UVM_INFO axi_op_monitor.sv(81) @ 835: uvm_test_top.env.op_agt.op_mon [OP_B] BVALID=1 BREADY=1 BRESP=0
UVM_INFO axi_scoreboard.sv(42) @ 835: uvm_test_top.env.scb [SCB] 3
UVM_INFO axi_scoreboard.sv(105) @ 835: uvm_test_top.env.scb [SCB] WRITE ADDRESS PASS: Exp_AWADDR=8 Actual_AWADDR=8
UVM_INFO axi_scoreboard.sv(110) @ 835: uvm_test_top.env.scb [SCB] WRITE DATA PASS: Exp_WDATA=84fbc45c Actual_WDATA=84fbc45c
UVM_INFO axi_scoreboard.sv(115) @ 835: uvm_test_top.env.scb [SCB] WRITE WSTRB PASS: Exp_WSTRB=3 Actual_WSTRB=3
UVM_INFO axi_scoreboard.sv(120) @ 835: uvm_test_top.env.scb [SCB] WRITE BRESP PASS: Exp_BRESP=0 Actual_BRESP=0
UVM_INFO axi_driver.sv(129) @ 855: uvm_test_top.env.inp_agt.inp_drv [AXI_W] WDATA=93565b2d WSTRB=4 WVALID=1 WREADY=1
UVM_INFO axi_inp_monitor.sv(73) @ 865: uvm_test_top.env.inp_agt.inp_mon [AXI_W] WDATA=93565b2d WSTRB=4 WVALID=1 WREADY=1
UVM_INFO axi_op_monitor.sv(73) @ 865: uvm_test_top.env.op_agt.op_mon [OP_W] WVALID=1 WREADY=1 WDATA=93565b2d WSTRB=4
UVM_INFO axi_driver.sv(111) @ 905: uvm_test_top.env.inp_agt.inp_drv [AXI_AW] AWADDR=4 AWPROT=101 AWVALID=1 AWREADY=1
UVM_INFO axi_inp_monitor.sv(64) @ 915: uvm_test_top.env.inp_agt.inp_mon [AXI_AW] AWADDR=4 AWPROT=101 AWVALID=1 AWREADY=1
UVM_INFO axi_op_monitor.sv(64) @ 915: uvm_test_top.env.op_agt.op_mon [OP_AW] AWVALID=1 AWREADY=1 AWADDR=4 AWPROT=101
reg_file[0] = bec8652e
reg_file[1] = 195620e9
reg_file[2] = 1f66c45c
reg_file[3] = 00000000
reg_file[4] = 00000000
reg_file[5] = 00000000
reg_file[6] = 00000000
reg_file[7] = 00000000
reg_file[8] = 00000000
reg_file[9] = 00000000
reg_file[10] = 00000000
reg_file[11] = 00000000
reg_file[12] = 00000000
reg_file[13] = 00000000
reg_file[14] = 00000000
reg_file[15] = 00000000
UVM_INFO axi_driver.sv(145) @ 925: uvm_test_top.env.inp_agt.inp_drv [AXI_B] BREADY=1 BVALID=1 BRESP=0
UVM_INFO axi_inp_monitor.sv(81) @ 935: uvm_test_top.env.inp_agt.inp_mon [AXI_B] BREADY=1 BRESP=0 BVALID=1
UVM_INFO axi_subscriber.sv(158) @ 935: uvm_test_top.env.sub [sub] [DRIVER]:INPUT RECIEVED
UVM_INFO axi_op_monitor.sv(81) @ 935: uvm_test_top.env.op_agt.op_mon [OP_B] BVALID=1 BREADY=1 BRESP=0
UVM_INFO axi_scoreboard.sv(42) @ 935: uvm_test_top.env.scb [SCB] 4
UVM_INFO axi_scoreboard.sv(105) @ 935: uvm_test_top.env.scb [SCB] WRITE ADDRESS PASS: Exp_AWADDR=4 Actual_AWADDR=4
UVM_INFO axi_scoreboard.sv(110) @ 935: uvm_test_top.env.scb [SCB] WRITE DATA PASS: Exp_WDATA=93565b2d Actual_WDATA=93565b2d
UVM_INFO axi_scoreboard.sv(115) @ 935: uvm_test_top.env.scb [SCB] WRITE WSTRB PASS: Exp_WSTRB=4 Actual_WSTRB=4
UVM_INFO axi_scoreboard.sv(120) @ 935: uvm_test_top.env.scb [SCB] WRITE BRESP PASS: Exp_BRESP=0 Actual_BRESP=0
UVM_INFO axi_driver.sv(129) @ 955: uvm_test_top.env.inp_agt.inp_drv [AXI_W] WDATA=631d669 WSTRB=1 WVALID=1 WREADY=1
UVM_INFO axi_inp_monitor.sv(73) @ 965: uvm_test_top.env.inp_agt.inp_mon [AXI_W] WDATA=631d669 WSTRB=1 WVALID=1 WREADY=1
UVM_INFO axi_op_monitor.sv(73) @ 965: uvm_test_top.env.op_agt.op_mon [OP_W] WVALID=1 WREADY=1 WDATA=631d669 WSTRB=1
UVM_INFO axi_driver.sv(111) @ 1005: uvm_test_top.env.inp_agt.inp_drv [AXI_AW] AWADDR=4 AWPROT=11 AWVALID=1 AWREADY=1
UVM_INFO axi_inp_monitor.sv(64) @ 1015: uvm_test_top.env.inp_agt.inp_mon [AXI_AW] AWADDR=4 AWPROT=11 AWVALID=1 AWREADY=1
UVM_INFO axi_op_monitor.sv(64) @ 1015: uvm_test_top.env.op_agt.op_mon [OP_AW] AWVALID=1 AWREADY=1 AWADDR=4 AWPROT=11
reg_file[0] = bec8652e
reg_file[1] = 19562069
reg_file[2] = 1f66c45c
reg_file[3] = 00000000
reg_file[4] = 00000000
reg_file[5] = 00000000
reg_file[6] = 00000000
reg_file[7] = 00000000
reg_file[8] = 00000000
reg_file[9] = 00000000
reg_file[10] = 00000000
reg_file[11] = 00000000
reg_file[12] = 00000000
reg_file[13] = 00000000
reg_file[14] = 00000000
reg_file[15] = 00000000
UVM_INFO axi_driver.sv(145) @ 1025: uvm_test_top.env.inp_agt.inp_drv [AXI_B] BREADY=1 BVALID=1 BRESP=0
UVM_INFO axi_inp_monitor.sv(81) @ 1035: uvm_test_top.env.inp_agt.inp_mon [AXI_B] BREADY=1 BRESP=0 BVALID=1
UVM_INFO axi_subscriber.sv(158) @ 1035: uvm_test_top.env.sub [sub] [DRIVER]:INPUT RECIEVED
UVM_INFO axi_op_monitor.sv(81) @ 1035: uvm_test_top.env.op_agt.op_mon [OP_B] BVALID=1 BREADY=1 BRESP=0
UVM_INFO axi_scoreboard.sv(42) @ 1035: uvm_test_top.env.scb [SCB] 1
UVM_INFO axi_scoreboard.sv(105) @ 1035: uvm_test_top.env.scb [SCB] WRITE ADDRESS PASS: Exp_AWADDR=4 Actual_AWADDR=4
UVM_INFO axi_scoreboard.sv(110) @ 1035: uvm_test_top.env.scb [SCB] WRITE DATA PASS: Exp_WDATA=631d669 Actual_WDATA=631d669
UVM_INFO axi_scoreboard.sv(115) @ 1035: uvm_test_top.env.scb [SCB] WRITE WSTRB PASS: Exp_WSTRB=1 Actual_WSTRB=1
UVM_INFO axi_scoreboard.sv(120) @ 1035: uvm_test_top.env.scb [SCB] WRITE BRESP PASS: Exp_BRESP=0 Actual_BRESP=0
UVM_INFO axi_driver.sv(129) @ 1055: uvm_test_top.env.inp_agt.inp_drv [AXI_W] WDATA=dcf113b6 WSTRB=1 WVALID=1 WREADY=1
UVM_INFO axi_inp_monitor.sv(73) @ 1065: uvm_test_top.env.inp_agt.inp_mon [AXI_W] WDATA=dcf113b6 WSTRB=1 WVALID=1 WREADY=1
UVM_INFO axi_op_monitor.sv(73) @ 1065: uvm_test_top.env.op_agt.op_mon [OP_W] WVALID=1 WREADY=1 WDATA=dcf113b6 WSTRB=1
UVM_INFO axi_driver.sv(111) @ 1105: uvm_test_top.env.inp_agt.inp_drv [AXI_AW] AWADDR=4 AWPROT=1 AWVALID=1 AWREADY=1
UVM_INFO axi_inp_monitor.sv(64) @ 1115: uvm_test_top.env.inp_agt.inp_mon [AXI_AW] AWADDR=4 AWPROT=1 AWVALID=1 AWREADY=1
UVM_INFO axi_op_monitor.sv(64) @ 1115: uvm_test_top.env.op_agt.op_mon [OP_AW] AWVALID=1 AWREADY=1 AWADDR=4 AWPROT=1
reg_file[0] = bec8652e
reg_file[1] = 195620b6
reg_file[2] = 1f66c45c
reg_file[3] = 00000000
reg_file[4] = 00000000
reg_file[5] = 00000000
reg_file[6] = 00000000
reg_file[7] = 00000000
reg_file[8] = 00000000
reg_file[9] = 00000000
reg_file[10] = 00000000
reg_file[11] = 00000000
reg_file[12] = 00000000
reg_file[13] = 00000000
reg_file[14] = 00000000
reg_file[15] = 00000000
UVM_INFO axi_driver.sv(145) @ 1125: uvm_test_top.env.inp_agt.inp_drv [AXI_B] BREADY=1 BVALID=1 BRESP=0
UVM_INFO axi_inp_monitor.sv(81) @ 1135: uvm_test_top.env.inp_agt.inp_mon [AXI_B] BREADY=1 BRESP=0 BVALID=1
UVM_INFO axi_subscriber.sv(158) @ 1135: uvm_test_top.env.sub [sub] [DRIVER]:INPUT RECIEVED
UVM_INFO axi_op_monitor.sv(81) @ 1135: uvm_test_top.env.op_agt.op_mon [OP_B] BVALID=1 BREADY=1 BRESP=0
UVM_INFO axi_scoreboard.sv(42) @ 1135: uvm_test_top.env.scb [SCB] 1
UVM_INFO axi_scoreboard.sv(105) @ 1135: uvm_test_top.env.scb [SCB] WRITE ADDRESS PASS: Exp_AWADDR=4 Actual_AWADDR=4
UVM_INFO axi_scoreboard.sv(110) @ 1135: uvm_test_top.env.scb [SCB] WRITE DATA PASS: Exp_WDATA=dcf113b6 Actual_WDATA=dcf113b6
UVM_INFO axi_scoreboard.sv(115) @ 1135: uvm_test_top.env.scb [SCB] WRITE WSTRB PASS: Exp_WSTRB=1 Actual_WSTRB=1
UVM_INFO axi_scoreboard.sv(120) @ 1135: uvm_test_top.env.scb [SCB] WRITE BRESP PASS: Exp_BRESP=0 Actual_BRESP=0
UVM_INFO axi_driver.sv(129) @ 1155: uvm_test_top.env.inp_agt.inp_drv [AXI_W] WDATA=33603b7c WSTRB=0 WVALID=1 WREADY=1
UVM_INFO axi_inp_monitor.sv(73) @ 1165: uvm_test_top.env.inp_agt.inp_mon [AXI_W] WDATA=33603b7c WSTRB=0 WVALID=1 WREADY=1
UVM_INFO axi_op_monitor.sv(73) @ 1165: uvm_test_top.env.op_agt.op_mon [OP_W] WVALID=1 WREADY=1 WDATA=33603b7c WSTRB=0
UVM_INFO axi_driver.sv(111) @ 1205: uvm_test_top.env.inp_agt.inp_drv [AXI_AW] AWADDR=4 AWPROT=10 AWVALID=1 AWREADY=1
UVM_INFO axi_inp_monitor.sv(64) @ 1215: uvm_test_top.env.inp_agt.inp_mon [AXI_AW] AWADDR=4 AWPROT=10 AWVALID=1 AWREADY=1
UVM_INFO axi_op_monitor.sv(64) @ 1215: uvm_test_top.env.op_agt.op_mon [OP_AW] AWVALID=1 AWREADY=1 AWADDR=4 AWPROT=10
reg_file[0] = bec8652e
reg_file[1] = 195620b6
reg_file[2] = 1f66c45c
reg_file[3] = 00000000
reg_file[4] = 00000000
reg_file[5] = 00000000
reg_file[6] = 00000000
reg_file[7] = 00000000
reg_file[8] = 00000000
reg_file[9] = 00000000
reg_file[10] = 00000000
reg_file[11] = 00000000
reg_file[12] = 00000000
reg_file[13] = 00000000
reg_file[14] = 00000000
reg_file[15] = 00000000
UVM_INFO axi_driver.sv(145) @ 1225: uvm_test_top.env.inp_agt.inp_drv [AXI_B] BREADY=1 BVALID=1 BRESP=0
UVM_INFO axi_inp_monitor.sv(81) @ 1235: uvm_test_top.env.inp_agt.inp_mon [AXI_B] BREADY=1 BRESP=0 BVALID=1
UVM_INFO axi_subscriber.sv(158) @ 1235: uvm_test_top.env.sub [sub] [DRIVER]:INPUT RECIEVED
UVM_INFO axi_op_monitor.sv(81) @ 1235: uvm_test_top.env.op_agt.op_mon [OP_B] BVALID=1 BREADY=1 BRESP=0
UVM_INFO axi_scoreboard.sv(42) @ 1235: uvm_test_top.env.scb [SCB] 0
UVM_INFO axi_scoreboard.sv(105) @ 1235: uvm_test_top.env.scb [SCB] WRITE ADDRESS PASS: Exp_AWADDR=4 Actual_AWADDR=4
UVM_INFO axi_scoreboard.sv(110) @ 1235: uvm_test_top.env.scb [SCB] WRITE DATA PASS: Exp_WDATA=33603b7c Actual_WDATA=33603b7c
UVM_INFO axi_scoreboard.sv(115) @ 1235: uvm_test_top.env.scb [SCB] WRITE WSTRB PASS: Exp_WSTRB=0 Actual_WSTRB=0
UVM_INFO axi_scoreboard.sv(120) @ 1235: uvm_test_top.env.scb [SCB] WRITE BRESP PASS: Exp_BRESP=0 Actual_BRESP=0
UVM_INFO axi_driver.sv(129) @ 1255: uvm_test_top.env.inp_agt.inp_drv [AXI_W] WDATA=77488993 WSTRB=f WVALID=1 WREADY=1
UVM_INFO axi_inp_monitor.sv(73) @ 1265: uvm_test_top.env.inp_agt.inp_mon [AXI_W] WDATA=77488993 WSTRB=f WVALID=1 WREADY=1
UVM_INFO axi_op_monitor.sv(73) @ 1265: uvm_test_top.env.op_agt.op_mon [OP_W] WVALID=1 WREADY=1 WDATA=77488993 WSTRB=f
UVM_INFO axi_driver.sv(111) @ 1305: uvm_test_top.env.inp_agt.inp_drv [AXI_AW] AWADDR=0 AWPROT=0 AWVALID=1 AWREADY=1
UVM_INFO axi_inp_monitor.sv(64) @ 1315: uvm_test_top.env.inp_agt.inp_mon [AXI_AW] AWADDR=0 AWPROT=0 AWVALID=1 AWREADY=1
UVM_INFO axi_op_monitor.sv(64) @ 1315: uvm_test_top.env.op_agt.op_mon [OP_AW] AWVALID=1 AWREADY=1 AWADDR=0 AWPROT=0
reg_file[0] = 77488993
reg_file[1] = 195620b6
reg_file[2] = 1f66c45c
reg_file[3] = 00000000
reg_file[4] = 00000000
reg_file[5] = 00000000
reg_file[6] = 00000000
reg_file[7] = 00000000
reg_file[8] = 00000000
reg_file[9] = 00000000
reg_file[10] = 00000000
reg_file[11] = 00000000
reg_file[12] = 00000000
reg_file[13] = 00000000
reg_file[14] = 00000000
reg_file[15] = 00000000
UVM_INFO axi_driver.sv(145) @ 1325: uvm_test_top.env.inp_agt.inp_drv [AXI_B] BREADY=1 BVALID=1 BRESP=0
UVM_INFO axi_inp_monitor.sv(81) @ 1335: uvm_test_top.env.inp_agt.inp_mon [AXI_B] BREADY=1 BRESP=0 BVALID=1
UVM_INFO axi_subscriber.sv(158) @ 1335: uvm_test_top.env.sub [sub] [DRIVER]:INPUT RECIEVED
UVM_INFO axi_op_monitor.sv(81) @ 1335: uvm_test_top.env.op_agt.op_mon [OP_B] BVALID=1 BREADY=1 BRESP=0
UVM_INFO axi_scoreboard.sv(42) @ 1335: uvm_test_top.env.scb [SCB] f
UVM_INFO axi_scoreboard.sv(105) @ 1335: uvm_test_top.env.scb [SCB] WRITE ADDRESS PASS: Exp_AWADDR=0 Actual_AWADDR=0
UVM_INFO axi_scoreboard.sv(110) @ 1335: uvm_test_top.env.scb [SCB] WRITE DATA PASS: Exp_WDATA=77488993 Actual_WDATA=77488993
UVM_INFO axi_scoreboard.sv(115) @ 1335: uvm_test_top.env.scb [SCB] WRITE WSTRB PASS: Exp_WSTRB=f Actual_WSTRB=f
UVM_INFO axi_scoreboard.sv(120) @ 1335: uvm_test_top.env.scb [SCB] WRITE BRESP PASS: Exp_BRESP=0 Actual_BRESP=0
UVM_INFO axi_driver.sv(129) @ 1355: uvm_test_top.env.inp_agt.inp_drv [AXI_W] WDATA=8745a03 WSTRB=9 WVALID=1 WREADY=1
UVM_INFO axi_inp_monitor.sv(73) @ 1365: uvm_test_top.env.inp_agt.inp_mon [AXI_W] WDATA=8745a03 WSTRB=9 WVALID=1 WREADY=1
UVM_INFO axi_op_monitor.sv(73) @ 1365: uvm_test_top.env.op_agt.op_mon [OP_W] WVALID=1 WREADY=1 WDATA=8745a03 WSTRB=9
UVM_INFO axi_driver.sv(111) @ 1405: uvm_test_top.env.inp_agt.inp_drv [AXI_AW] AWADDR=8 AWPROT=110 AWVALID=1 AWREADY=1
UVM_INFO axi_inp_monitor.sv(64) @ 1415: uvm_test_top.env.inp_agt.inp_mon [AXI_AW] AWADDR=8 AWPROT=110 AWVALID=1 AWREADY=1
UVM_INFO axi_op_monitor.sv(64) @ 1415: uvm_test_top.env.op_agt.op_mon [OP_AW] AWVALID=1 AWREADY=1 AWADDR=8 AWPROT=110
reg_file[0] = 77488993
reg_file[1] = 195620b6
reg_file[2] = 0866c403
reg_file[3] = 00000000
reg_file[4] = 00000000
reg_file[5] = 00000000
reg_file[6] = 00000000
reg_file[7] = 00000000
reg_file[8] = 00000000
reg_file[9] = 00000000
reg_file[10] = 00000000
reg_file[11] = 00000000
reg_file[12] = 00000000
reg_file[13] = 00000000
reg_file[14] = 00000000
reg_file[15] = 00000000
UVM_INFO axi_driver.sv(145) @ 1425: uvm_test_top.env.inp_agt.inp_drv [AXI_B] BREADY=1 BVALID=1 BRESP=0
UVM_INFO axi_inp_monitor.sv(81) @ 1435: uvm_test_top.env.inp_agt.inp_mon [AXI_B] BREADY=1 BRESP=0 BVALID=1
UVM_INFO axi_subscriber.sv(158) @ 1435: uvm_test_top.env.sub [sub] [DRIVER]:INPUT RECIEVED
UVM_INFO axi_op_monitor.sv(81) @ 1435: uvm_test_top.env.op_agt.op_mon [OP_B] BVALID=1 BREADY=1 BRESP=0
UVM_INFO axi_scoreboard.sv(42) @ 1435: uvm_test_top.env.scb [SCB] 9
UVM_INFO axi_scoreboard.sv(105) @ 1435: uvm_test_top.env.scb [SCB] WRITE ADDRESS PASS: Exp_AWADDR=8 Actual_AWADDR=8
UVM_INFO axi_scoreboard.sv(110) @ 1435: uvm_test_top.env.scb [SCB] WRITE DATA PASS: Exp_WDATA=8745a03 Actual_WDATA=8745a03
UVM_INFO axi_scoreboard.sv(115) @ 1435: uvm_test_top.env.scb [SCB] WRITE WSTRB PASS: Exp_WSTRB=9 Actual_WSTRB=9
UVM_INFO axi_scoreboard.sv(120) @ 1435: uvm_test_top.env.scb [SCB] WRITE BRESP PASS: Exp_BRESP=0 Actual_BRESP=0
UVM_INFO axi_driver.sv(129) @ 1455: uvm_test_top.env.inp_agt.inp_drv [AXI_W] WDATA=4475ebb WSTRB=e WVALID=1 WREADY=1
UVM_INFO axi_inp_monitor.sv(73) @ 1465: uvm_test_top.env.inp_agt.inp_mon [AXI_W] WDATA=4475ebb WSTRB=e WVALID=1 WREADY=1
UVM_INFO axi_op_monitor.sv(73) @ 1465: uvm_test_top.env.op_agt.op_mon [OP_W] WVALID=1 WREADY=1 WDATA=4475ebb WSTRB=e
UVM_INFO axi_driver.sv(111) @ 1505: uvm_test_top.env.inp_agt.inp_drv [AXI_AW] AWADDR=0 AWPROT=11 AWVALID=1 AWREADY=1
UVM_INFO axi_inp_monitor.sv(64) @ 1515: uvm_test_top.env.inp_agt.inp_mon [AXI_AW] AWADDR=0 AWPROT=11 AWVALID=1 AWREADY=1
UVM_INFO axi_op_monitor.sv(64) @ 1515: uvm_test_top.env.op_agt.op_mon [OP_AW] AWVALID=1 AWREADY=1 AWADDR=0 AWPROT=11
reg_file[0] = 04475e93
reg_file[1] = 195620b6
reg_file[2] = 0866c403
reg_file[3] = 00000000
reg_file[4] = 00000000
reg_file[5] = 00000000
reg_file[6] = 00000000
reg_file[7] = 00000000
reg_file[8] = 00000000
reg_file[9] = 00000000
reg_file[10] = 00000000
reg_file[11] = 00000000
reg_file[12] = 00000000
reg_file[13] = 00000000
reg_file[14] = 00000000
reg_file[15] = 00000000
UVM_INFO axi_driver.sv(145) @ 1525: uvm_test_top.env.inp_agt.inp_drv [AXI_B] BREADY=1 BVALID=1 BRESP=0
UVM_INFO axi_inp_monitor.sv(81) @ 1535: uvm_test_top.env.inp_agt.inp_mon [AXI_B] BREADY=1 BRESP=0 BVALID=1
UVM_INFO axi_subscriber.sv(158) @ 1535: uvm_test_top.env.sub [sub] [DRIVER]:INPUT RECIEVED
UVM_INFO axi_op_monitor.sv(81) @ 1535: uvm_test_top.env.op_agt.op_mon [OP_B] BVALID=1 BREADY=1 BRESP=0
UVM_INFO axi_scoreboard.sv(42) @ 1535: uvm_test_top.env.scb [SCB] e
UVM_INFO axi_scoreboard.sv(105) @ 1535: uvm_test_top.env.scb [SCB] WRITE ADDRESS PASS: Exp_AWADDR=0 Actual_AWADDR=0
UVM_INFO axi_scoreboard.sv(110) @ 1535: uvm_test_top.env.scb [SCB] WRITE DATA PASS: Exp_WDATA=4475ebb Actual_WDATA=4475ebb
UVM_INFO axi_scoreboard.sv(115) @ 1535: uvm_test_top.env.scb [SCB] WRITE WSTRB PASS: Exp_WSTRB=e Actual_WSTRB=e
UVM_INFO axi_scoreboard.sv(120) @ 1535: uvm_test_top.env.scb [SCB] WRITE BRESP PASS: Exp_BRESP=0 Actual_BRESP=0
UVM_INFO axi_driver.sv(129) @ 1555: uvm_test_top.env.inp_agt.inp_drv [AXI_W] WDATA=fad3bdaa WSTRB=8 WVALID=1 WREADY=1
UVM_INFO axi_inp_monitor.sv(73) @ 1565: uvm_test_top.env.inp_agt.inp_mon [AXI_W] WDATA=fad3bdaa WSTRB=8 WVALID=1 WREADY=1
UVM_INFO axi_op_monitor.sv(73) @ 1565: uvm_test_top.env.op_agt.op_mon [OP_W] WVALID=1 WREADY=1 WDATA=fad3bdaa WSTRB=8
UVM_INFO axi_driver.sv(111) @ 1605: uvm_test_top.env.inp_agt.inp_drv [AXI_AW] AWADDR=8 AWPROT=1 AWVALID=1 AWREADY=1
UVM_INFO axi_inp_monitor.sv(64) @ 1615: uvm_test_top.env.inp_agt.inp_mon [AXI_AW] AWADDR=8 AWPROT=1 AWVALID=1 AWREADY=1
UVM_INFO axi_op_monitor.sv(64) @ 1615: uvm_test_top.env.op_agt.op_mon [OP_AW] AWVALID=1 AWREADY=1 AWADDR=8 AWPROT=1
reg_file[0] = 04475e93
reg_file[1] = 195620b6
reg_file[2] = fa66c403
reg_file[3] = 00000000
reg_file[4] = 00000000
reg_file[5] = 00000000
reg_file[6] = 00000000
reg_file[7] = 00000000
reg_file[8] = 00000000
reg_file[9] = 00000000
reg_file[10] = 00000000
reg_file[11] = 00000000
reg_file[12] = 00000000
reg_file[13] = 00000000
reg_file[14] = 00000000
reg_file[15] = 00000000
UVM_INFO axi_driver.sv(145) @ 1625: uvm_test_top.env.inp_agt.inp_drv [AXI_B] BREADY=1 BVALID=1 BRESP=0
UVM_INFO axi_inp_monitor.sv(81) @ 1635: uvm_test_top.env.inp_agt.inp_mon [AXI_B] BREADY=1 BRESP=0 BVALID=1
UVM_INFO axi_subscriber.sv(158) @ 1635: uvm_test_top.env.sub [sub] [DRIVER]:INPUT RECIEVED
UVM_INFO axi_op_monitor.sv(81) @ 1635: uvm_test_top.env.op_agt.op_mon [OP_B] BVALID=1 BREADY=1 BRESP=0
UVM_INFO axi_scoreboard.sv(42) @ 1635: uvm_test_top.env.scb [SCB] 8
UVM_INFO axi_scoreboard.sv(105) @ 1635: uvm_test_top.env.scb [SCB] WRITE ADDRESS PASS: Exp_AWADDR=8 Actual_AWADDR=8
UVM_INFO axi_scoreboard.sv(110) @ 1635: uvm_test_top.env.scb [SCB] WRITE DATA PASS: Exp_WDATA=fad3bdaa Actual_WDATA=fad3bdaa
UVM_INFO axi_scoreboard.sv(115) @ 1635: uvm_test_top.env.scb [SCB] WRITE WSTRB PASS: Exp_WSTRB=8 Actual_WSTRB=8
UVM_INFO axi_scoreboard.sv(120) @ 1635: uvm_test_top.env.scb [SCB] WRITE BRESP PASS: Exp_BRESP=0 Actual_BRESP=0
UVM_INFO axi_driver.sv(129) @ 1655: uvm_test_top.env.inp_agt.inp_drv [AXI_W] WDATA=9fed9fb2 WSTRB=3 WVALID=1 WREADY=1
UVM_INFO axi_inp_monitor.sv(73) @ 1665: uvm_test_top.env.inp_agt.inp_mon [AXI_W] WDATA=9fed9fb2 WSTRB=3 WVALID=1 WREADY=1
UVM_INFO axi_op_monitor.sv(73) @ 1665: uvm_test_top.env.op_agt.op_mon [OP_W] WVALID=1 WREADY=1 WDATA=9fed9fb2 WSTRB=3
UVM_INFO axi_driver.sv(111) @ 1705: uvm_test_top.env.inp_agt.inp_drv [AXI_AW] AWADDR=4 AWPROT=110 AWVALID=1 AWREADY=1
UVM_INFO axi_inp_monitor.sv(64) @ 1715: uvm_test_top.env.inp_agt.inp_mon [AXI_AW] AWADDR=4 AWPROT=110 AWVALID=1 AWREADY=1
UVM_INFO axi_op_monitor.sv(64) @ 1715: uvm_test_top.env.op_agt.op_mon [OP_AW] AWVALID=1 AWREADY=1 AWADDR=4 AWPROT=110
reg_file[0] = 04475e93
reg_file[1] = 19569fb2
reg_file[2] = fa66c403
reg_file[3] = 00000000
reg_file[4] = 00000000
reg_file[5] = 00000000
reg_file[6] = 00000000
reg_file[7] = 00000000
reg_file[8] = 00000000
reg_file[9] = 00000000
reg_file[10] = 00000000
reg_file[11] = 00000000
reg_file[12] = 00000000
reg_file[13] = 00000000
reg_file[14] = 00000000
reg_file[15] = 00000000
UVM_INFO axi_driver.sv(145) @ 1725: uvm_test_top.env.inp_agt.inp_drv [AXI_B] BREADY=1 BVALID=1 BRESP=0
UVM_INFO axi_inp_monitor.sv(81) @ 1735: uvm_test_top.env.inp_agt.inp_mon [AXI_B] BREADY=1 BRESP=0 BVALID=1
UVM_INFO axi_subscriber.sv(158) @ 1735: uvm_test_top.env.sub [sub] [DRIVER]:INPUT RECIEVED
UVM_INFO axi_op_monitor.sv(81) @ 1735: uvm_test_top.env.op_agt.op_mon [OP_B] BVALID=1 BREADY=1 BRESP=0
UVM_INFO axi_scoreboard.sv(42) @ 1735: uvm_test_top.env.scb [SCB] 3
UVM_INFO axi_scoreboard.sv(105) @ 1735: uvm_test_top.env.scb [SCB] WRITE ADDRESS PASS: Exp_AWADDR=4 Actual_AWADDR=4
UVM_INFO axi_scoreboard.sv(110) @ 1735: uvm_test_top.env.scb [SCB] WRITE DATA PASS: Exp_WDATA=9fed9fb2 Actual_WDATA=9fed9fb2
UVM_INFO axi_scoreboard.sv(115) @ 1735: uvm_test_top.env.scb [SCB] WRITE WSTRB PASS: Exp_WSTRB=3 Actual_WSTRB=3
UVM_INFO axi_scoreboard.sv(120) @ 1735: uvm_test_top.env.scb [SCB] WRITE BRESP PASS: Exp_BRESP=0 Actual_BRESP=0
UVM_INFO axi_driver.sv(129) @ 1755: uvm_test_top.env.inp_agt.inp_drv [AXI_W] WDATA=4ca66018 WSTRB=6 WVALID=1 WREADY=1
UVM_INFO axi_inp_monitor.sv(73) @ 1765: uvm_test_top.env.inp_agt.inp_mon [AXI_W] WDATA=4ca66018 WSTRB=6 WVALID=1 WREADY=1
UVM_INFO axi_op_monitor.sv(73) @ 1765: uvm_test_top.env.op_agt.op_mon [OP_W] WVALID=1 WREADY=1 WDATA=4ca66018 WSTRB=6
UVM_INFO axi_driver.sv(111) @ 1805: uvm_test_top.env.inp_agt.inp_drv [AXI_AW] AWADDR=4 AWPROT=10 AWVALID=1 AWREADY=1
UVM_INFO axi_inp_monitor.sv(64) @ 1815: uvm_test_top.env.inp_agt.inp_mon [AXI_AW] AWADDR=4 AWPROT=10 AWVALID=1 AWREADY=1
UVM_INFO axi_op_monitor.sv(64) @ 1815: uvm_test_top.env.op_agt.op_mon [OP_AW] AWVALID=1 AWREADY=1 AWADDR=4 AWPROT=10
reg_file[0] = 04475e93
reg_file[1] = 19a660b2
reg_file[2] = fa66c403
reg_file[3] = 00000000
reg_file[4] = 00000000
reg_file[5] = 00000000
reg_file[6] = 00000000
reg_file[7] = 00000000
reg_file[8] = 00000000
reg_file[9] = 00000000
reg_file[10] = 00000000
reg_file[11] = 00000000
reg_file[12] = 00000000
reg_file[13] = 00000000
reg_file[14] = 00000000
reg_file[15] = 00000000
UVM_INFO axi_driver.sv(145) @ 1825: uvm_test_top.env.inp_agt.inp_drv [AXI_B] BREADY=1 BVALID=1 BRESP=0
UVM_INFO axi_inp_monitor.sv(81) @ 1835: uvm_test_top.env.inp_agt.inp_mon [AXI_B] BREADY=1 BRESP=0 BVALID=1
UVM_INFO axi_subscriber.sv(158) @ 1835: uvm_test_top.env.sub [sub] [DRIVER]:INPUT RECIEVED
UVM_INFO axi_op_monitor.sv(81) @ 1835: uvm_test_top.env.op_agt.op_mon [OP_B] BVALID=1 BREADY=1 BRESP=0
UVM_INFO axi_scoreboard.sv(42) @ 1835: uvm_test_top.env.scb [SCB] 6
UVM_INFO axi_scoreboard.sv(105) @ 1835: uvm_test_top.env.scb [SCB] WRITE ADDRESS PASS: Exp_AWADDR=4 Actual_AWADDR=4
UVM_INFO axi_scoreboard.sv(110) @ 1835: uvm_test_top.env.scb [SCB] WRITE DATA PASS: Exp_WDATA=4ca66018 Actual_WDATA=4ca66018
UVM_INFO axi_scoreboard.sv(115) @ 1835: uvm_test_top.env.scb [SCB] WRITE WSTRB PASS: Exp_WSTRB=6 Actual_WSTRB=6
UVM_INFO axi_scoreboard.sv(120) @ 1835: uvm_test_top.env.scb [SCB] WRITE BRESP PASS: Exp_BRESP=0 Actual_BRESP=0
UVM_INFO axi_driver.sv(129) @ 1855: uvm_test_top.env.inp_agt.inp_drv [AXI_W] WDATA=1adbc6b7 WSTRB=a WVALID=1 WREADY=1
UVM_INFO axi_inp_monitor.sv(73) @ 1865: uvm_test_top.env.inp_agt.inp_mon [AXI_W] WDATA=1adbc6b7 WSTRB=a WVALID=1 WREADY=1
UVM_INFO axi_op_monitor.sv(73) @ 1865: uvm_test_top.env.op_agt.op_mon [OP_W] WVALID=1 WREADY=1 WDATA=1adbc6b7 WSTRB=a
UVM_INFO axi_driver.sv(111) @ 1905: uvm_test_top.env.inp_agt.inp_drv [AXI_AW] AWADDR=4 AWPROT=100 AWVALID=1 AWREADY=1
UVM_INFO axi_inp_monitor.sv(64) @ 1915: uvm_test_top.env.inp_agt.inp_mon [AXI_AW] AWADDR=4 AWPROT=100 AWVALID=1 AWREADY=1
UVM_INFO axi_op_monitor.sv(64) @ 1915: uvm_test_top.env.op_agt.op_mon [OP_AW] AWVALID=1 AWREADY=1 AWADDR=4 AWPROT=100
reg_file[0] = 04475e93
reg_file[1] = 1aa6c6b2
reg_file[2] = fa66c403
reg_file[3] = 00000000
reg_file[4] = 00000000
reg_file[5] = 00000000
reg_file[6] = 00000000
reg_file[7] = 00000000
reg_file[8] = 00000000
reg_file[9] = 00000000
reg_file[10] = 00000000
reg_file[11] = 00000000
reg_file[12] = 00000000
reg_file[13] = 00000000
reg_file[14] = 00000000
reg_file[15] = 00000000
UVM_INFO axi_driver.sv(145) @ 1925: uvm_test_top.env.inp_agt.inp_drv [AXI_B] BREADY=1 BVALID=1 BRESP=0
UVM_INFO axi_inp_monitor.sv(81) @ 1935: uvm_test_top.env.inp_agt.inp_mon [AXI_B] BREADY=1 BRESP=0 BVALID=1
UVM_INFO axi_subscriber.sv(158) @ 1935: uvm_test_top.env.sub [sub] [DRIVER]:INPUT RECIEVED
UVM_INFO axi_op_monitor.sv(81) @ 1935: uvm_test_top.env.op_agt.op_mon [OP_B] BVALID=1 BREADY=1 BRESP=0
UVM_INFO axi_scoreboard.sv(42) @ 1935: uvm_test_top.env.scb [SCB] a
UVM_INFO axi_scoreboard.sv(105) @ 1935: uvm_test_top.env.scb [SCB] WRITE ADDRESS PASS: Exp_AWADDR=4 Actual_AWADDR=4
UVM_INFO axi_scoreboard.sv(110) @ 1935: uvm_test_top.env.scb [SCB] WRITE DATA PASS: Exp_WDATA=1adbc6b7 Actual_WDATA=1adbc6b7
UVM_INFO axi_scoreboard.sv(115) @ 1935: uvm_test_top.env.scb [SCB] WRITE WSTRB PASS: Exp_WSTRB=a Actual_WSTRB=a
UVM_INFO axi_scoreboard.sv(120) @ 1935: uvm_test_top.env.scb [SCB] WRITE BRESP PASS: Exp_BRESP=0 Actual_BRESP=0
UVM_INFO axi_driver.sv(129) @ 1955: uvm_test_top.env.inp_agt.inp_drv [AXI_W] WDATA=f64412f1 WSTRB=4 WVALID=1 WREADY=1
UVM_INFO axi_inp_monitor.sv(73) @ 1965: uvm_test_top.env.inp_agt.inp_mon [AXI_W] WDATA=f64412f1 WSTRB=4 WVALID=1 WREADY=1
UVM_INFO axi_op_monitor.sv(73) @ 1965: uvm_test_top.env.op_agt.op_mon [OP_W] WVALID=1 WREADY=1 WDATA=f64412f1 WSTRB=4
UVM_INFO axi_driver.sv(111) @ 2005: uvm_test_top.env.inp_agt.inp_drv [AXI_AW] AWADDR=0 AWPROT=1 AWVALID=1 AWREADY=1
UVM_INFO axi_inp_monitor.sv(64) @ 2015: uvm_test_top.env.inp_agt.inp_mon [AXI_AW] AWADDR=0 AWPROT=1 AWVALID=1 AWREADY=1
UVM_INFO axi_op_monitor.sv(64) @ 2015: uvm_test_top.env.op_agt.op_mon [OP_AW] AWVALID=1 AWREADY=1 AWADDR=0 AWPROT=1
reg_file[0] = 04445e93
reg_file[1] = 1aa6c6b2
reg_file[2] = fa66c403
reg_file[3] = 00000000
reg_file[4] = 00000000
reg_file[5] = 00000000
reg_file[6] = 00000000
reg_file[7] = 00000000
reg_file[8] = 00000000
reg_file[9] = 00000000
reg_file[10] = 00000000
reg_file[11] = 00000000
reg_file[12] = 00000000
reg_file[13] = 00000000
reg_file[14] = 00000000
reg_file[15] = 00000000
UVM_INFO axi_driver.sv(145) @ 2025: uvm_test_top.env.inp_agt.inp_drv [AXI_B] BREADY=1 BVALID=1 BRESP=0
UVM_INFO axi_inp_monitor.sv(81) @ 2035: uvm_test_top.env.inp_agt.inp_mon [AXI_B] BREADY=1 BRESP=0 BVALID=1
UVM_INFO axi_subscriber.sv(158) @ 2035: uvm_test_top.env.sub [sub] [DRIVER]:INPUT RECIEVED
UVM_INFO axi_op_monitor.sv(81) @ 2035: uvm_test_top.env.op_agt.op_mon [OP_B] BVALID=1 BREADY=1 BRESP=0
UVM_INFO axi_scoreboard.sv(42) @ 2035: uvm_test_top.env.scb [SCB] 4
UVM_INFO axi_scoreboard.sv(105) @ 2035: uvm_test_top.env.scb [SCB] WRITE ADDRESS PASS: Exp_AWADDR=0 Actual_AWADDR=0
UVM_INFO axi_scoreboard.sv(110) @ 2035: uvm_test_top.env.scb [SCB] WRITE DATA PASS: Exp_WDATA=f64412f1 Actual_WDATA=f64412f1
UVM_INFO axi_scoreboard.sv(115) @ 2035: uvm_test_top.env.scb [SCB] WRITE WSTRB PASS: Exp_WSTRB=4 Actual_WSTRB=4
UVM_INFO axi_scoreboard.sv(120) @ 2035: uvm_test_top.env.scb [SCB] WRITE BRESP PASS: Exp_BRESP=0 Actual_BRESP=0
UVM_INFO axi_driver.sv(129) @ 2055: uvm_test_top.env.inp_agt.inp_drv [AXI_W] WDATA=db68637a WSTRB=c WVALID=1 WREADY=1
UVM_INFO axi_inp_monitor.sv(73) @ 2065: uvm_test_top.env.inp_agt.inp_mon [AXI_W] WDATA=db68637a WSTRB=c WVALID=1 WREADY=1
UVM_INFO axi_op_monitor.sv(73) @ 2065: uvm_test_top.env.op_agt.op_mon [OP_W] WVALID=1 WREADY=1 WDATA=db68637a WSTRB=c
UVM_INFO axi_driver.sv(111) @ 2105: uvm_test_top.env.inp_agt.inp_drv [AXI_AW] AWADDR=4 AWPROT=0 AWVALID=1 AWREADY=1
UVM_INFO axi_inp_monitor.sv(64) @ 2115: uvm_test_top.env.inp_agt.inp_mon [AXI_AW] AWADDR=4 AWPROT=0 AWVALID=1 AWREADY=1
UVM_INFO axi_op_monitor.sv(64) @ 2115: uvm_test_top.env.op_agt.op_mon [OP_AW] AWVALID=1 AWREADY=1 AWADDR=4 AWPROT=0
reg_file[0] = 04445e93
reg_file[1] = db68c6b2
reg_file[2] = fa66c403
reg_file[3] = 00000000
reg_file[4] = 00000000
reg_file[5] = 00000000
reg_file[6] = 00000000
reg_file[7] = 00000000
reg_file[8] = 00000000
reg_file[9] = 00000000
reg_file[10] = 00000000
reg_file[11] = 00000000
reg_file[12] = 00000000
reg_file[13] = 00000000
reg_file[14] = 00000000
reg_file[15] = 00000000
UVM_INFO axi_driver.sv(145) @ 2125: uvm_test_top.env.inp_agt.inp_drv [AXI_B] BREADY=1 BVALID=1 BRESP=0
UVM_INFO axi_inp_monitor.sv(81) @ 2135: uvm_test_top.env.inp_agt.inp_mon [AXI_B] BREADY=1 BRESP=0 BVALID=1
UVM_INFO axi_subscriber.sv(158) @ 2135: uvm_test_top.env.sub [sub] [DRIVER]:INPUT RECIEVED
UVM_INFO axi_op_monitor.sv(81) @ 2135: uvm_test_top.env.op_agt.op_mon [OP_B] BVALID=1 BREADY=1 BRESP=0
UVM_INFO axi_scoreboard.sv(42) @ 2135: uvm_test_top.env.scb [SCB] c
UVM_INFO axi_scoreboard.sv(105) @ 2135: uvm_test_top.env.scb [SCB] WRITE ADDRESS PASS: Exp_AWADDR=4 Actual_AWADDR=4
UVM_INFO axi_scoreboard.sv(110) @ 2135: uvm_test_top.env.scb [SCB] WRITE DATA PASS: Exp_WDATA=db68637a Actual_WDATA=db68637a
UVM_INFO axi_scoreboard.sv(115) @ 2135: uvm_test_top.env.scb [SCB] WRITE WSTRB PASS: Exp_WSTRB=c Actual_WSTRB=c
UVM_INFO axi_scoreboard.sv(120) @ 2135: uvm_test_top.env.scb [SCB] WRITE BRESP PASS: Exp_BRESP=0 Actual_BRESP=0
UVM_INFO axi_driver.sv(129) @ 2155: uvm_test_top.env.inp_agt.inp_drv [AXI_W] WDATA=ee24ec07 WSTRB=a WVALID=1 WREADY=1
UVM_INFO axi_inp_monitor.sv(73) @ 2165: uvm_test_top.env.inp_agt.inp_mon [AXI_W] WDATA=ee24ec07 WSTRB=a WVALID=1 WREADY=1
UVM_INFO axi_op_monitor.sv(73) @ 2165: uvm_test_top.env.op_agt.op_mon [OP_W] WVALID=1 WREADY=1 WDATA=ee24ec07 WSTRB=a
UVM_INFO axi_driver.sv(111) @ 2205: uvm_test_top.env.inp_agt.inp_drv [AXI_AW] AWADDR=0 AWPROT=10 AWVALID=1 AWREADY=1
UVM_INFO axi_inp_monitor.sv(64) @ 2215: uvm_test_top.env.inp_agt.inp_mon [AXI_AW] AWADDR=0 AWPROT=10 AWVALID=1 AWREADY=1
UVM_INFO axi_op_monitor.sv(64) @ 2215: uvm_test_top.env.op_agt.op_mon [OP_AW] AWVALID=1 AWREADY=1 AWADDR=0 AWPROT=10
reg_file[0] = ee44ec93
reg_file[1] = db68c6b2
reg_file[2] = fa66c403
reg_file[3] = 00000000
reg_file[4] = 00000000
reg_file[5] = 00000000
reg_file[6] = 00000000
reg_file[7] = 00000000
reg_file[8] = 00000000
reg_file[9] = 00000000
reg_file[10] = 00000000
reg_file[11] = 00000000
reg_file[12] = 00000000
reg_file[13] = 00000000
reg_file[14] = 00000000
reg_file[15] = 00000000
UVM_INFO axi_driver.sv(145) @ 2225: uvm_test_top.env.inp_agt.inp_drv [AXI_B] BREADY=1 BVALID=1 BRESP=0
UVM_INFO axi_inp_monitor.sv(81) @ 2235: uvm_test_top.env.inp_agt.inp_mon [AXI_B] BREADY=1 BRESP=0 BVALID=1
UVM_INFO axi_subscriber.sv(158) @ 2235: uvm_test_top.env.sub [sub] [DRIVER]:INPUT RECIEVED
UVM_INFO axi_op_monitor.sv(81) @ 2235: uvm_test_top.env.op_agt.op_mon [OP_B] BVALID=1 BREADY=1 BRESP=0
UVM_INFO axi_scoreboard.sv(42) @ 2235: uvm_test_top.env.scb [SCB] a
UVM_INFO axi_scoreboard.sv(105) @ 2235: uvm_test_top.env.scb [SCB] WRITE ADDRESS PASS: Exp_AWADDR=0 Actual_AWADDR=0
UVM_INFO axi_scoreboard.sv(110) @ 2235: uvm_test_top.env.scb [SCB] WRITE DATA PASS: Exp_WDATA=ee24ec07 Actual_WDATA=ee24ec07
UVM_INFO axi_scoreboard.sv(115) @ 2235: uvm_test_top.env.scb [SCB] WRITE WSTRB PASS: Exp_WSTRB=a Actual_WSTRB=a
UVM_INFO axi_scoreboard.sv(120) @ 2235: uvm_test_top.env.scb [SCB] WRITE BRESP PASS: Exp_BRESP=0 Actual_BRESP=0
UVM_INFO axi_driver.sv(129) @ 2255: uvm_test_top.env.inp_agt.inp_drv [AXI_W] WDATA=8e7d524e WSTRB=4 WVALID=1 WREADY=1
UVM_INFO axi_inp_monitor.sv(73) @ 2265: uvm_test_top.env.inp_agt.inp_mon [AXI_W] WDATA=8e7d524e WSTRB=4 WVALID=1 WREADY=1
UVM_INFO axi_op_monitor.sv(73) @ 2265: uvm_test_top.env.op_agt.op_mon [OP_W] WVALID=1 WREADY=1 WDATA=8e7d524e WSTRB=4
UVM_INFO axi_driver.sv(111) @ 2305: uvm_test_top.env.inp_agt.inp_drv [AXI_AW] AWADDR=0 AWPROT=1 AWVALID=1 AWREADY=1
UVM_INFO axi_inp_monitor.sv(64) @ 2315: uvm_test_top.env.inp_agt.inp_mon [AXI_AW] AWADDR=0 AWPROT=1 AWVALID=1 AWREADY=1
UVM_INFO axi_op_monitor.sv(64) @ 2315: uvm_test_top.env.op_agt.op_mon [OP_AW] AWVALID=1 AWREADY=1 AWADDR=0 AWPROT=1
reg_file[0] = ee7dec93
reg_file[1] = db68c6b2
reg_file[2] = fa66c403
reg_file[3] = 00000000
reg_file[4] = 00000000
reg_file[5] = 00000000
reg_file[6] = 00000000
reg_file[7] = 00000000
reg_file[8] = 00000000
reg_file[9] = 00000000
reg_file[10] = 00000000
reg_file[11] = 00000000
reg_file[12] = 00000000
reg_file[13] = 00000000
reg_file[14] = 00000000
reg_file[15] = 00000000
UVM_INFO axi_driver.sv(145) @ 2325: uvm_test_top.env.inp_agt.inp_drv [AXI_B] BREADY=1 BVALID=1 BRESP=0
UVM_INFO axi_inp_monitor.sv(81) @ 2335: uvm_test_top.env.inp_agt.inp_mon [AXI_B] BREADY=1 BRESP=0 BVALID=1
UVM_INFO axi_subscriber.sv(158) @ 2335: uvm_test_top.env.sub [sub] [DRIVER]:INPUT RECIEVED
UVM_INFO axi_op_monitor.sv(81) @ 2335: uvm_test_top.env.op_agt.op_mon [OP_B] BVALID=1 BREADY=1 BRESP=0
UVM_INFO axi_scoreboard.sv(42) @ 2335: uvm_test_top.env.scb [SCB] 4
UVM_INFO axi_scoreboard.sv(105) @ 2335: uvm_test_top.env.scb [SCB] WRITE ADDRESS PASS: Exp_AWADDR=0 Actual_AWADDR=0
UVM_INFO axi_scoreboard.sv(110) @ 2335: uvm_test_top.env.scb [SCB] WRITE DATA PASS: Exp_WDATA=8e7d524e Actual_WDATA=8e7d524e
UVM_INFO axi_scoreboard.sv(115) @ 2335: uvm_test_top.env.scb [SCB] WRITE WSTRB PASS: Exp_WSTRB=4 Actual_WSTRB=4
UVM_INFO axi_scoreboard.sv(120) @ 2335: uvm_test_top.env.scb [SCB] WRITE BRESP PASS: Exp_BRESP=0 Actual_BRESP=0
UVM_INFO axi_driver.sv(129) @ 2355: uvm_test_top.env.inp_agt.inp_drv [AXI_W] WDATA=1a40e25a WSTRB=8 WVALID=1 WREADY=1
UVM_INFO axi_inp_monitor.sv(73) @ 2365: uvm_test_top.env.inp_agt.inp_mon [AXI_W] WDATA=1a40e25a WSTRB=8 WVALID=1 WREADY=1
UVM_INFO axi_op_monitor.sv(73) @ 2365: uvm_test_top.env.op_agt.op_mon [OP_W] WVALID=1 WREADY=1 WDATA=1a40e25a WSTRB=8
UVM_INFO axi_driver.sv(111) @ 2405: uvm_test_top.env.inp_agt.inp_drv [AXI_AW] AWADDR=8 AWPROT=11 AWVALID=1 AWREADY=1
UVM_INFO axi_inp_monitor.sv(64) @ 2415: uvm_test_top.env.inp_agt.inp_mon [AXI_AW] AWADDR=8 AWPROT=11 AWVALID=1 AWREADY=1
UVM_INFO axi_op_monitor.sv(64) @ 2415: uvm_test_top.env.op_agt.op_mon [OP_AW] AWVALID=1 AWREADY=1 AWADDR=8 AWPROT=11
reg_file[0] = ee7dec93
reg_file[1] = db68c6b2
reg_file[2] = 1a66c403
reg_file[3] = 00000000
reg_file[4] = 00000000
reg_file[5] = 00000000
reg_file[6] = 00000000
reg_file[7] = 00000000
reg_file[8] = 00000000
reg_file[9] = 00000000
reg_file[10] = 00000000
reg_file[11] = 00000000
reg_file[12] = 00000000
reg_file[13] = 00000000
reg_file[14] = 00000000
reg_file[15] = 00000000
UVM_INFO axi_driver.sv(145) @ 2425: uvm_test_top.env.inp_agt.inp_drv [AXI_B] BREADY=1 BVALID=1 BRESP=0
UVM_INFO axi_inp_monitor.sv(81) @ 2435: uvm_test_top.env.inp_agt.inp_mon [AXI_B] BREADY=1 BRESP=0 BVALID=1
UVM_INFO axi_subscriber.sv(158) @ 2435: uvm_test_top.env.sub [sub] [DRIVER]:INPUT RECIEVED
UVM_INFO axi_op_monitor.sv(81) @ 2435: uvm_test_top.env.op_agt.op_mon [OP_B] BVALID=1 BREADY=1 BRESP=0
UVM_INFO axi_scoreboard.sv(42) @ 2435: uvm_test_top.env.scb [SCB] 8
UVM_INFO axi_scoreboard.sv(105) @ 2435: uvm_test_top.env.scb [SCB] WRITE ADDRESS PASS: Exp_AWADDR=8 Actual_AWADDR=8
UVM_INFO axi_scoreboard.sv(110) @ 2435: uvm_test_top.env.scb [SCB] WRITE DATA PASS: Exp_WDATA=1a40e25a Actual_WDATA=1a40e25a
UVM_INFO axi_scoreboard.sv(115) @ 2435: uvm_test_top.env.scb [SCB] WRITE WSTRB PASS: Exp_WSTRB=8 Actual_WSTRB=8
UVM_INFO axi_scoreboard.sv(120) @ 2435: uvm_test_top.env.scb [SCB] WRITE BRESP PASS: Exp_BRESP=0 Actual_BRESP=0
UVM_INFO axi_driver.sv(129) @ 2455: uvm_test_top.env.inp_agt.inp_drv [AXI_W] WDATA=8a71f609 WSTRB=3 WVALID=1 WREADY=1
UVM_INFO axi_inp_monitor.sv(73) @ 2465: uvm_test_top.env.inp_agt.inp_mon [AXI_W] WDATA=8a71f609 WSTRB=3 WVALID=1 WREADY=1
UVM_INFO axi_op_monitor.sv(73) @ 2465: uvm_test_top.env.op_agt.op_mon [OP_W] WVALID=1 WREADY=1 WDATA=8a71f609 WSTRB=3
UVM_INFO axi_driver.sv(111) @ 2505: uvm_test_top.env.inp_agt.inp_drv [AXI_AW] AWADDR=0 AWPROT=10 AWVALID=1 AWREADY=1
UVM_INFO axi_inp_monitor.sv(64) @ 2515: uvm_test_top.env.inp_agt.inp_mon [AXI_AW] AWADDR=0 AWPROT=10 AWVALID=1 AWREADY=1
UVM_INFO axi_op_monitor.sv(64) @ 2515: uvm_test_top.env.op_agt.op_mon [OP_AW] AWVALID=1 AWREADY=1 AWADDR=0 AWPROT=10
reg_file[0] = ee7df609
reg_file[1] = db68c6b2
reg_file[2] = 1a66c403
reg_file[3] = 00000000
reg_file[4] = 00000000
reg_file[5] = 00000000
reg_file[6] = 00000000
reg_file[7] = 00000000
reg_file[8] = 00000000
reg_file[9] = 00000000
reg_file[10] = 00000000
reg_file[11] = 00000000
reg_file[12] = 00000000
reg_file[13] = 00000000
reg_file[14] = 00000000
reg_file[15] = 00000000
UVM_INFO axi_driver.sv(145) @ 2525: uvm_test_top.env.inp_agt.inp_drv [AXI_B] BREADY=1 BVALID=1 BRESP=0
UVM_INFO axi_inp_monitor.sv(81) @ 2535: uvm_test_top.env.inp_agt.inp_mon [AXI_B] BREADY=1 BRESP=0 BVALID=1
UVM_INFO axi_subscriber.sv(158) @ 2535: uvm_test_top.env.sub [sub] [DRIVER]:INPUT RECIEVED
UVM_INFO axi_op_monitor.sv(81) @ 2535: uvm_test_top.env.op_agt.op_mon [OP_B] BVALID=1 BREADY=1 BRESP=0
UVM_INFO axi_scoreboard.sv(42) @ 2535: uvm_test_top.env.scb [SCB] 3
UVM_INFO axi_scoreboard.sv(105) @ 2535: uvm_test_top.env.scb [SCB] WRITE ADDRESS PASS: Exp_AWADDR=0 Actual_AWADDR=0
UVM_INFO axi_scoreboard.sv(110) @ 2535: uvm_test_top.env.scb [SCB] WRITE DATA PASS: Exp_WDATA=8a71f609 Actual_WDATA=8a71f609
UVM_INFO axi_scoreboard.sv(115) @ 2535: uvm_test_top.env.scb [SCB] WRITE WSTRB PASS: Exp_WSTRB=3 Actual_WSTRB=3
UVM_INFO axi_scoreboard.sv(120) @ 2535: uvm_test_top.env.scb [SCB] WRITE BRESP PASS: Exp_BRESP=0 Actual_BRESP=0
UVM_INFO axi_driver.sv(129) @ 2555: uvm_test_top.env.inp_agt.inp_drv [AXI_W] WDATA=8d9f8291 WSTRB=a WVALID=1 WREADY=1
UVM_INFO axi_inp_monitor.sv(73) @ 2565: uvm_test_top.env.inp_agt.inp_mon [AXI_W] WDATA=8d9f8291 WSTRB=a WVALID=1 WREADY=1
UVM_INFO axi_op_monitor.sv(73) @ 2565: uvm_test_top.env.op_agt.op_mon [OP_W] WVALID=1 WREADY=1 WDATA=8d9f8291 WSTRB=a
UVM_INFO axi_driver.sv(111) @ 2605: uvm_test_top.env.inp_agt.inp_drv [AXI_AW] AWADDR=4 AWPROT=11 AWVALID=1 AWREADY=1
UVM_INFO axi_inp_monitor.sv(64) @ 2615: uvm_test_top.env.inp_agt.inp_mon [AXI_AW] AWADDR=4 AWPROT=11 AWVALID=1 AWREADY=1
UVM_INFO axi_op_monitor.sv(64) @ 2615: uvm_test_top.env.op_agt.op_mon [OP_AW] AWVALID=1 AWREADY=1 AWADDR=4 AWPROT=11
reg_file[0] = ee7df609
reg_file[1] = 8d6882b2
reg_file[2] = 1a66c403
reg_file[3] = 00000000
reg_file[4] = 00000000
reg_file[5] = 00000000
reg_file[6] = 00000000
reg_file[7] = 00000000
reg_file[8] = 00000000
reg_file[9] = 00000000
reg_file[10] = 00000000
reg_file[11] = 00000000
reg_file[12] = 00000000
reg_file[13] = 00000000
reg_file[14] = 00000000
reg_file[15] = 00000000
UVM_INFO axi_driver.sv(145) @ 2625: uvm_test_top.env.inp_agt.inp_drv [AXI_B] BREADY=1 BVALID=1 BRESP=0
UVM_INFO axi_inp_monitor.sv(81) @ 2635: uvm_test_top.env.inp_agt.inp_mon [AXI_B] BREADY=1 BRESP=0 BVALID=1
UVM_INFO axi_subscriber.sv(158) @ 2635: uvm_test_top.env.sub [sub] [DRIVER]:INPUT RECIEVED
UVM_INFO axi_op_monitor.sv(81) @ 2635: uvm_test_top.env.op_agt.op_mon [OP_B] BVALID=1 BREADY=1 BRESP=0
UVM_INFO axi_scoreboard.sv(42) @ 2635: uvm_test_top.env.scb [SCB] a
UVM_INFO axi_scoreboard.sv(105) @ 2635: uvm_test_top.env.scb [SCB] WRITE ADDRESS PASS: Exp_AWADDR=4 Actual_AWADDR=4
UVM_INFO axi_scoreboard.sv(110) @ 2635: uvm_test_top.env.scb [SCB] WRITE DATA PASS: Exp_WDATA=8d9f8291 Actual_WDATA=8d9f8291
UVM_INFO axi_scoreboard.sv(115) @ 2635: uvm_test_top.env.scb [SCB] WRITE WSTRB PASS: Exp_WSTRB=a Actual_WSTRB=a
UVM_INFO axi_scoreboard.sv(120) @ 2635: uvm_test_top.env.scb [SCB] WRITE BRESP PASS: Exp_BRESP=0 Actual_BRESP=0
UVM_INFO axi_driver.sv(129) @ 2655: uvm_test_top.env.inp_agt.inp_drv [AXI_W] WDATA=99b5e510 WSTRB=0 WVALID=1 WREADY=1
UVM_INFO axi_inp_monitor.sv(73) @ 2665: uvm_test_top.env.inp_agt.inp_mon [AXI_W] WDATA=99b5e510 WSTRB=0 WVALID=1 WREADY=1
UVM_INFO axi_op_monitor.sv(73) @ 2665: uvm_test_top.env.op_agt.op_mon [OP_W] WVALID=1 WREADY=1 WDATA=99b5e510 WSTRB=0
UVM_INFO axi_driver.sv(111) @ 2705: uvm_test_top.env.inp_agt.inp_drv [AXI_AW] AWADDR=8 AWPROT=1 AWVALID=1 AWREADY=1
UVM_INFO axi_inp_monitor.sv(64) @ 2715: uvm_test_top.env.inp_agt.inp_mon [AXI_AW] AWADDR=8 AWPROT=1 AWVALID=1 AWREADY=1
UVM_INFO axi_op_monitor.sv(64) @ 2715: uvm_test_top.env.op_agt.op_mon [OP_AW] AWVALID=1 AWREADY=1 AWADDR=8 AWPROT=1
reg_file[0] = ee7df609
reg_file[1] = 8d6882b2
reg_file[2] = 1a66c403
reg_file[3] = 00000000
reg_file[4] = 00000000
reg_file[5] = 00000000
reg_file[6] = 00000000
reg_file[7] = 00000000
reg_file[8] = 00000000
reg_file[9] = 00000000
reg_file[10] = 00000000
reg_file[11] = 00000000
reg_file[12] = 00000000
reg_file[13] = 00000000
reg_file[14] = 00000000
reg_file[15] = 00000000
UVM_INFO axi_driver.sv(145) @ 2725: uvm_test_top.env.inp_agt.inp_drv [AXI_B] BREADY=1 BVALID=1 BRESP=0
UVM_INFO axi_inp_monitor.sv(81) @ 2735: uvm_test_top.env.inp_agt.inp_mon [AXI_B] BREADY=1 BRESP=0 BVALID=1
UVM_INFO axi_subscriber.sv(158) @ 2735: uvm_test_top.env.sub [sub] [DRIVER]:INPUT RECIEVED
UVM_INFO axi_op_monitor.sv(81) @ 2735: uvm_test_top.env.op_agt.op_mon [OP_B] BVALID=1 BREADY=1 BRESP=0
UVM_INFO axi_scoreboard.sv(42) @ 2735: uvm_test_top.env.scb [SCB] 0
UVM_INFO axi_scoreboard.sv(105) @ 2735: uvm_test_top.env.scb [SCB] WRITE ADDRESS PASS: Exp_AWADDR=8 Actual_AWADDR=8
UVM_INFO axi_scoreboard.sv(110) @ 2735: uvm_test_top.env.scb [SCB] WRITE DATA PASS: Exp_WDATA=99b5e510 Actual_WDATA=99b5e510
UVM_INFO axi_scoreboard.sv(115) @ 2735: uvm_test_top.env.scb [SCB] WRITE WSTRB PASS: Exp_WSTRB=0 Actual_WSTRB=0
UVM_INFO axi_scoreboard.sv(120) @ 2735: uvm_test_top.env.scb [SCB] WRITE BRESP PASS: Exp_BRESP=0 Actual_BRESP=0
UVM_INFO axi_driver.sv(129) @ 2755: uvm_test_top.env.inp_agt.inp_drv [AXI_W] WDATA=519b4301 WSTRB=4 WVALID=1 WREADY=1
UVM_INFO axi_inp_monitor.sv(73) @ 2765: uvm_test_top.env.inp_agt.inp_mon [AXI_W] WDATA=519b4301 WSTRB=4 WVALID=1 WREADY=1
UVM_INFO axi_op_monitor.sv(73) @ 2765: uvm_test_top.env.op_agt.op_mon [OP_W] WVALID=1 WREADY=1 WDATA=519b4301 WSTRB=4
UVM_INFO axi_driver.sv(111) @ 2805: uvm_test_top.env.inp_agt.inp_drv [AXI_AW] AWADDR=0 AWPROT=10 AWVALID=1 AWREADY=1
UVM_INFO axi_inp_monitor.sv(64) @ 2815: uvm_test_top.env.inp_agt.inp_mon [AXI_AW] AWADDR=0 AWPROT=10 AWVALID=1 AWREADY=1
UVM_INFO axi_op_monitor.sv(64) @ 2815: uvm_test_top.env.op_agt.op_mon [OP_AW] AWVALID=1 AWREADY=1 AWADDR=0 AWPROT=10
reg_file[0] = ee9bf609
reg_file[1] = 8d6882b2
reg_file[2] = 1a66c403
reg_file[3] = 00000000
reg_file[4] = 00000000
reg_file[5] = 00000000
reg_file[6] = 00000000
reg_file[7] = 00000000
reg_file[8] = 00000000
reg_file[9] = 00000000
reg_file[10] = 00000000
reg_file[11] = 00000000
reg_file[12] = 00000000
reg_file[13] = 00000000
reg_file[14] = 00000000
reg_file[15] = 00000000
UVM_INFO axi_driver.sv(145) @ 2825: uvm_test_top.env.inp_agt.inp_drv [AXI_B] BREADY=1 BVALID=1 BRESP=0
UVM_INFO axi_inp_monitor.sv(81) @ 2835: uvm_test_top.env.inp_agt.inp_mon [AXI_B] BREADY=1 BRESP=0 BVALID=1
UVM_INFO axi_subscriber.sv(158) @ 2835: uvm_test_top.env.sub [sub] [DRIVER]:INPUT RECIEVED
UVM_INFO axi_op_monitor.sv(81) @ 2835: uvm_test_top.env.op_agt.op_mon [OP_B] BVALID=1 BREADY=1 BRESP=0
UVM_INFO axi_scoreboard.sv(42) @ 2835: uvm_test_top.env.scb [SCB] 4
UVM_INFO axi_scoreboard.sv(105) @ 2835: uvm_test_top.env.scb [SCB] WRITE ADDRESS PASS: Exp_AWADDR=0 Actual_AWADDR=0
UVM_INFO axi_scoreboard.sv(110) @ 2835: uvm_test_top.env.scb [SCB] WRITE DATA PASS: Exp_WDATA=519b4301 Actual_WDATA=519b4301
UVM_INFO axi_scoreboard.sv(115) @ 2835: uvm_test_top.env.scb [SCB] WRITE WSTRB PASS: Exp_WSTRB=4 Actual_WSTRB=4
UVM_INFO axi_scoreboard.sv(120) @ 2835: uvm_test_top.env.scb [SCB] WRITE BRESP PASS: Exp_BRESP=0 Actual_BRESP=0
UVM_INFO axi_driver.sv(129) @ 2855: uvm_test_top.env.inp_agt.inp_drv [AXI_W] WDATA=a193288e WSTRB=1 WVALID=1 WREADY=1
UVM_INFO axi_inp_monitor.sv(73) @ 2865: uvm_test_top.env.inp_agt.inp_mon [AXI_W] WDATA=a193288e WSTRB=1 WVALID=1 WREADY=1
UVM_INFO axi_op_monitor.sv(73) @ 2865: uvm_test_top.env.op_agt.op_mon [OP_W] WVALID=1 WREADY=1 WDATA=a193288e WSTRB=1
UVM_INFO axi_driver.sv(111) @ 2905: uvm_test_top.env.inp_agt.inp_drv [AXI_AW] AWADDR=8 AWPROT=100 AWVALID=1 AWREADY=1
UVM_INFO axi_inp_monitor.sv(64) @ 2915: uvm_test_top.env.inp_agt.inp_mon [AXI_AW] AWADDR=8 AWPROT=100 AWVALID=1 AWREADY=1
UVM_INFO axi_op_monitor.sv(64) @ 2915: uvm_test_top.env.op_agt.op_mon [OP_AW] AWVALID=1 AWREADY=1 AWADDR=8 AWPROT=100
reg_file[0] = ee9bf609
reg_file[1] = 8d6882b2
reg_file[2] = 1a66c48e
reg_file[3] = 00000000
reg_file[4] = 00000000
reg_file[5] = 00000000
reg_file[6] = 00000000
reg_file[7] = 00000000
reg_file[8] = 00000000
reg_file[9] = 00000000
reg_file[10] = 00000000
reg_file[11] = 00000000
reg_file[12] = 00000000
reg_file[13] = 00000000
reg_file[14] = 00000000
reg_file[15] = 00000000
UVM_INFO axi_driver.sv(145) @ 2925: uvm_test_top.env.inp_agt.inp_drv [AXI_B] BREADY=1 BVALID=1 BRESP=0
UVM_INFO axi_inp_monitor.sv(81) @ 2935: uvm_test_top.env.inp_agt.inp_mon [AXI_B] BREADY=1 BRESP=0 BVALID=1
UVM_INFO axi_subscriber.sv(158) @ 2935: uvm_test_top.env.sub [sub] [DRIVER]:INPUT RECIEVED
UVM_INFO axi_op_monitor.sv(81) @ 2935: uvm_test_top.env.op_agt.op_mon [OP_B] BVALID=1 BREADY=1 BRESP=0
UVM_INFO axi_scoreboard.sv(42) @ 2935: uvm_test_top.env.scb [SCB] 1
UVM_INFO axi_scoreboard.sv(105) @ 2935: uvm_test_top.env.scb [SCB] WRITE ADDRESS PASS: Exp_AWADDR=8 Actual_AWADDR=8
UVM_INFO axi_scoreboard.sv(110) @ 2935: uvm_test_top.env.scb [SCB] WRITE DATA PASS: Exp_WDATA=a193288e Actual_WDATA=a193288e
UVM_INFO axi_scoreboard.sv(115) @ 2935: uvm_test_top.env.scb [SCB] WRITE WSTRB PASS: Exp_WSTRB=1 Actual_WSTRB=1
UVM_INFO axi_scoreboard.sv(120) @ 2935: uvm_test_top.env.scb [SCB] WRITE BRESP PASS: Exp_BRESP=0 Actual_BRESP=0
UVM_INFO axi_driver.sv(129) @ 2955: uvm_test_top.env.inp_agt.inp_drv [AXI_W] WDATA=6383acfe WSTRB=4 WVALID=1 WREADY=1
UVM_INFO axi_inp_monitor.sv(73) @ 2965: uvm_test_top.env.inp_agt.inp_mon [AXI_W] WDATA=6383acfe WSTRB=4 WVALID=1 WREADY=1
UVM_INFO axi_op_monitor.sv(73) @ 2965: uvm_test_top.env.op_agt.op_mon [OP_W] WVALID=1 WREADY=1 WDATA=6383acfe WSTRB=4
UVM_INFO axi_driver.sv(111) @ 3005: uvm_test_top.env.inp_agt.inp_drv [AXI_AW] AWADDR=0 AWPROT=110 AWVALID=1 AWREADY=1
UVM_INFO axi_inp_monitor.sv(64) @ 3015: uvm_test_top.env.inp_agt.inp_mon [AXI_AW] AWADDR=0 AWPROT=110 AWVALID=1 AWREADY=1
UVM_INFO axi_op_monitor.sv(64) @ 3015: uvm_test_top.env.op_agt.op_mon [OP_AW] AWVALID=1 AWREADY=1 AWADDR=0 AWPROT=110
reg_file[0] = ee83f609
reg_file[1] = 8d6882b2
reg_file[2] = 1a66c48e
reg_file[3] = 00000000
reg_file[4] = 00000000
reg_file[5] = 00000000
reg_file[6] = 00000000
reg_file[7] = 00000000
reg_file[8] = 00000000
reg_file[9] = 00000000
reg_file[10] = 00000000
reg_file[11] = 00000000
reg_file[12] = 00000000
reg_file[13] = 00000000
reg_file[14] = 00000000
reg_file[15] = 00000000
UVM_INFO axi_driver.sv(145) @ 3025: uvm_test_top.env.inp_agt.inp_drv [AXI_B] BREADY=1 BVALID=1 BRESP=0
UVM_INFO axi_inp_monitor.sv(81) @ 3035: uvm_test_top.env.inp_agt.inp_mon [AXI_B] BREADY=1 BRESP=0 BVALID=1
UVM_INFO axi_subscriber.sv(158) @ 3035: uvm_test_top.env.sub [sub] [DRIVER]:INPUT RECIEVED
UVM_INFO axi_op_monitor.sv(81) @ 3035: uvm_test_top.env.op_agt.op_mon [OP_B] BVALID=1 BREADY=1 BRESP=0
UVM_INFO axi_scoreboard.sv(42) @ 3035: uvm_test_top.env.scb [SCB] 4
UVM_INFO axi_scoreboard.sv(105) @ 3035: uvm_test_top.env.scb [SCB] WRITE ADDRESS PASS: Exp_AWADDR=0 Actual_AWADDR=0
UVM_INFO axi_scoreboard.sv(110) @ 3035: uvm_test_top.env.scb [SCB] WRITE DATA PASS: Exp_WDATA=6383acfe Actual_WDATA=6383acfe
UVM_INFO axi_scoreboard.sv(115) @ 3035: uvm_test_top.env.scb [SCB] WRITE WSTRB PASS: Exp_WSTRB=4 Actual_WSTRB=4
UVM_INFO axi_scoreboard.sv(120) @ 3035: uvm_test_top.env.scb [SCB] WRITE BRESP PASS: Exp_BRESP=0 Actual_BRESP=0
UVM_INFO axi_driver.sv(129) @ 3055: uvm_test_top.env.inp_agt.inp_drv [AXI_W] WDATA=81bf2750 WSTRB=7 WVALID=1 WREADY=1
UVM_INFO axi_inp_monitor.sv(73) @ 3065: uvm_test_top.env.inp_agt.inp_mon [AXI_W] WDATA=81bf2750 WSTRB=7 WVALID=1 WREADY=1
UVM_INFO axi_op_monitor.sv(73) @ 3065: uvm_test_top.env.op_agt.op_mon [OP_W] WVALID=1 WREADY=1 WDATA=81bf2750 WSTRB=7
UVM_INFO axi_driver.sv(111) @ 3105: uvm_test_top.env.inp_agt.inp_drv [AXI_AW] AWADDR=4 AWPROT=1 AWVALID=1 AWREADY=1
UVM_INFO axi_inp_monitor.sv(64) @ 3115: uvm_test_top.env.inp_agt.inp_mon [AXI_AW] AWADDR=4 AWPROT=1 AWVALID=1 AWREADY=1
UVM_INFO axi_op_monitor.sv(64) @ 3115: uvm_test_top.env.op_agt.op_mon [OP_AW] AWVALID=1 AWREADY=1 AWADDR=4 AWPROT=1
reg_file[0] = ee83f609
reg_file[1] = 8dbf2750
reg_file[2] = 1a66c48e
reg_file[3] = 00000000
reg_file[4] = 00000000
reg_file[5] = 00000000
reg_file[6] = 00000000
reg_file[7] = 00000000
reg_file[8] = 00000000
reg_file[9] = 00000000
reg_file[10] = 00000000
reg_file[11] = 00000000
reg_file[12] = 00000000
reg_file[13] = 00000000
reg_file[14] = 00000000
reg_file[15] = 00000000
UVM_INFO axi_driver.sv(145) @ 3125: uvm_test_top.env.inp_agt.inp_drv [AXI_B] BREADY=1 BVALID=1 BRESP=0
UVM_INFO axi_inp_monitor.sv(81) @ 3135: uvm_test_top.env.inp_agt.inp_mon [AXI_B] BREADY=1 BRESP=0 BVALID=1
UVM_INFO axi_subscriber.sv(158) @ 3135: uvm_test_top.env.sub [sub] [DRIVER]:INPUT RECIEVED
UVM_INFO axi_op_monitor.sv(81) @ 3135: uvm_test_top.env.op_agt.op_mon [OP_B] BVALID=1 BREADY=1 BRESP=0
UVM_INFO axi_scoreboard.sv(42) @ 3135: uvm_test_top.env.scb [SCB] 7
UVM_INFO axi_scoreboard.sv(105) @ 3135: uvm_test_top.env.scb [SCB] WRITE ADDRESS PASS: Exp_AWADDR=4 Actual_AWADDR=4
UVM_INFO axi_scoreboard.sv(110) @ 3135: uvm_test_top.env.scb [SCB] WRITE DATA PASS: Exp_WDATA=81bf2750 Actual_WDATA=81bf2750
UVM_INFO axi_scoreboard.sv(115) @ 3135: uvm_test_top.env.scb [SCB] WRITE WSTRB PASS: Exp_WSTRB=7 Actual_WSTRB=7
UVM_INFO axi_scoreboard.sv(120) @ 3135: uvm_test_top.env.scb [SCB] WRITE BRESP PASS: Exp_BRESP=0 Actual_BRESP=0
UVM_INFO axi_driver.sv(129) @ 3155: uvm_test_top.env.inp_agt.inp_drv [AXI_W] WDATA=892c1ef7 WSTRB=d WVALID=1 WREADY=1
UVM_INFO axi_inp_monitor.sv(73) @ 3165: uvm_test_top.env.inp_agt.inp_mon [AXI_W] WDATA=892c1ef7 WSTRB=d WVALID=1 WREADY=1
UVM_INFO axi_op_monitor.sv(73) @ 3165: uvm_test_top.env.op_agt.op_mon [OP_W] WVALID=1 WREADY=1 WDATA=892c1ef7 WSTRB=d
UVM_INFO axi_driver.sv(111) @ 3205: uvm_test_top.env.inp_agt.inp_drv [AXI_AW] AWADDR=0 AWPROT=1 AWVALID=1 AWREADY=1
UVM_INFO axi_inp_monitor.sv(64) @ 3215: uvm_test_top.env.inp_agt.inp_mon [AXI_AW] AWADDR=0 AWPROT=1 AWVALID=1 AWREADY=1
UVM_INFO axi_op_monitor.sv(64) @ 3215: uvm_test_top.env.op_agt.op_mon [OP_AW] AWVALID=1 AWREADY=1 AWADDR=0 AWPROT=1
reg_file[0] = 892cf6f7
reg_file[1] = 8dbf2750
reg_file[2] = 1a66c48e
reg_file[3] = 00000000
reg_file[4] = 00000000
reg_file[5] = 00000000
reg_file[6] = 00000000
reg_file[7] = 00000000
reg_file[8] = 00000000
reg_file[9] = 00000000
reg_file[10] = 00000000
reg_file[11] = 00000000
reg_file[12] = 00000000
reg_file[13] = 00000000
reg_file[14] = 00000000
reg_file[15] = 00000000
UVM_INFO axi_driver.sv(145) @ 3225: uvm_test_top.env.inp_agt.inp_drv [AXI_B] BREADY=1 BVALID=1 BRESP=0
UVM_INFO axi_inp_monitor.sv(81) @ 3235: uvm_test_top.env.inp_agt.inp_mon [AXI_B] BREADY=1 BRESP=0 BVALID=1
UVM_INFO axi_subscriber.sv(158) @ 3235: uvm_test_top.env.sub [sub] [DRIVER]:INPUT RECIEVED
UVM_INFO axi_op_monitor.sv(81) @ 3235: uvm_test_top.env.op_agt.op_mon [OP_B] BVALID=1 BREADY=1 BRESP=0
UVM_INFO axi_scoreboard.sv(42) @ 3235: uvm_test_top.env.scb [SCB] d
UVM_INFO axi_scoreboard.sv(105) @ 3235: uvm_test_top.env.scb [SCB] WRITE ADDRESS PASS: Exp_AWADDR=0 Actual_AWADDR=0
UVM_INFO axi_scoreboard.sv(110) @ 3235: uvm_test_top.env.scb [SCB] WRITE DATA PASS: Exp_WDATA=892c1ef7 Actual_WDATA=892c1ef7
UVM_INFO axi_scoreboard.sv(115) @ 3235: uvm_test_top.env.scb [SCB] WRITE WSTRB PASS: Exp_WSTRB=d Actual_WSTRB=d
UVM_INFO axi_scoreboard.sv(120) @ 3235: uvm_test_top.env.scb [SCB] WRITE BRESP PASS: Exp_BRESP=0 Actual_BRESP=0
UVM_INFO axi_driver.sv(129) @ 3255: uvm_test_top.env.inp_agt.inp_drv [AXI_W] WDATA=ad574b59 WSTRB=c WVALID=1 WREADY=1
UVM_INFO axi_inp_monitor.sv(73) @ 3265: uvm_test_top.env.inp_agt.inp_mon [AXI_W] WDATA=ad574b59 WSTRB=c WVALID=1 WREADY=1
UVM_INFO axi_op_monitor.sv(73) @ 3265: uvm_test_top.env.op_agt.op_mon [OP_W] WVALID=1 WREADY=1 WDATA=ad574b59 WSTRB=c
UVM_INFO axi_driver.sv(111) @ 3305: uvm_test_top.env.inp_agt.inp_drv [AXI_AW] AWADDR=8 AWPROT=0 AWVALID=1 AWREADY=1
UVM_INFO axi_inp_monitor.sv(64) @ 3315: uvm_test_top.env.inp_agt.inp_mon [AXI_AW] AWADDR=8 AWPROT=0 AWVALID=1 AWREADY=1
UVM_INFO axi_op_monitor.sv(64) @ 3315: uvm_test_top.env.op_agt.op_mon [OP_AW] AWVALID=1 AWREADY=1 AWADDR=8 AWPROT=0
reg_file[0] = 892cf6f7
reg_file[1] = 8dbf2750
reg_file[2] = ad57c48e
reg_file[3] = 00000000
reg_file[4] = 00000000
reg_file[5] = 00000000
reg_file[6] = 00000000
reg_file[7] = 00000000
reg_file[8] = 00000000
reg_file[9] = 00000000
reg_file[10] = 00000000
reg_file[11] = 00000000
reg_file[12] = 00000000
reg_file[13] = 00000000
reg_file[14] = 00000000
reg_file[15] = 00000000
UVM_INFO axi_driver.sv(145) @ 3325: uvm_test_top.env.inp_agt.inp_drv [AXI_B] BREADY=1 BVALID=1 BRESP=0
UVM_INFO axi_inp_monitor.sv(81) @ 3335: uvm_test_top.env.inp_agt.inp_mon [AXI_B] BREADY=1 BRESP=0 BVALID=1
UVM_INFO axi_subscriber.sv(158) @ 3335: uvm_test_top.env.sub [sub] [DRIVER]:INPUT RECIEVED
UVM_INFO axi_op_monitor.sv(81) @ 3335: uvm_test_top.env.op_agt.op_mon [OP_B] BVALID=1 BREADY=1 BRESP=0
UVM_INFO axi_scoreboard.sv(42) @ 3335: uvm_test_top.env.scb [SCB] c
UVM_INFO axi_scoreboard.sv(105) @ 3335: uvm_test_top.env.scb [SCB] WRITE ADDRESS PASS: Exp_AWADDR=8 Actual_AWADDR=8
UVM_INFO axi_scoreboard.sv(110) @ 3335: uvm_test_top.env.scb [SCB] WRITE DATA PASS: Exp_WDATA=ad574b59 Actual_WDATA=ad574b59
UVM_INFO axi_scoreboard.sv(115) @ 3335: uvm_test_top.env.scb [SCB] WRITE WSTRB PASS: Exp_WSTRB=c Actual_WSTRB=c
UVM_INFO axi_scoreboard.sv(120) @ 3335: uvm_test_top.env.scb [SCB] WRITE BRESP PASS: Exp_BRESP=0 Actual_BRESP=0
UVM_INFO axi_driver.sv(129) @ 3355: uvm_test_top.env.inp_agt.inp_drv [AXI_W] WDATA=32386733 WSTRB=b WVALID=1 WREADY=1
UVM_INFO axi_inp_monitor.sv(73) @ 3365: uvm_test_top.env.inp_agt.inp_mon [AXI_W] WDATA=32386733 WSTRB=b WVALID=1 WREADY=1
UVM_INFO axi_op_monitor.sv(73) @ 3365: uvm_test_top.env.op_agt.op_mon [OP_W] WVALID=1 WREADY=1 WDATA=32386733 WSTRB=b
UVM_INFO axi_driver.sv(111) @ 3405: uvm_test_top.env.inp_agt.inp_drv [AXI_AW] AWADDR=8 AWPROT=0 AWVALID=1 AWREADY=1
UVM_INFO axi_inp_monitor.sv(64) @ 3415: uvm_test_top.env.inp_agt.inp_mon [AXI_AW] AWADDR=8 AWPROT=0 AWVALID=1 AWREADY=1
UVM_INFO axi_op_monitor.sv(64) @ 3415: uvm_test_top.env.op_agt.op_mon [OP_AW] AWVALID=1 AWREADY=1 AWADDR=8 AWPROT=0
reg_file[0] = 892cf6f7
reg_file[1] = 8dbf2750
reg_file[2] = 32576733
reg_file[3] = 00000000
reg_file[4] = 00000000
reg_file[5] = 00000000
reg_file[6] = 00000000
reg_file[7] = 00000000
reg_file[8] = 00000000
reg_file[9] = 00000000
reg_file[10] = 00000000
reg_file[11] = 00000000
reg_file[12] = 00000000
reg_file[13] = 00000000
reg_file[14] = 00000000
reg_file[15] = 00000000
UVM_INFO axi_driver.sv(145) @ 3425: uvm_test_top.env.inp_agt.inp_drv [AXI_B] BREADY=1 BVALID=1 BRESP=0
UVM_INFO axi_inp_monitor.sv(81) @ 3435: uvm_test_top.env.inp_agt.inp_mon [AXI_B] BREADY=1 BRESP=0 BVALID=1
UVM_INFO axi_subscriber.sv(158) @ 3435: uvm_test_top.env.sub [sub] [DRIVER]:INPUT RECIEVED
UVM_INFO axi_op_monitor.sv(81) @ 3435: uvm_test_top.env.op_agt.op_mon [OP_B] BVALID=1 BREADY=1 BRESP=0
UVM_INFO axi_scoreboard.sv(42) @ 3435: uvm_test_top.env.scb [SCB] b
UVM_INFO axi_scoreboard.sv(105) @ 3435: uvm_test_top.env.scb [SCB] WRITE ADDRESS PASS: Exp_AWADDR=8 Actual_AWADDR=8
UVM_INFO axi_scoreboard.sv(110) @ 3435: uvm_test_top.env.scb [SCB] WRITE DATA PASS: Exp_WDATA=32386733 Actual_WDATA=32386733
UVM_INFO axi_scoreboard.sv(115) @ 3435: uvm_test_top.env.scb [SCB] WRITE WSTRB PASS: Exp_WSTRB=b Actual_WSTRB=b
UVM_INFO axi_scoreboard.sv(120) @ 3435: uvm_test_top.env.scb [SCB] WRITE BRESP PASS: Exp_BRESP=0 Actual_BRESP=0
UVM_INFO axi_driver.sv(129) @ 3455: uvm_test_top.env.inp_agt.inp_drv [AXI_W] WDATA=a933da4b WSTRB=5 WVALID=1 WREADY=1
UVM_INFO axi_inp_monitor.sv(73) @ 3465: uvm_test_top.env.inp_agt.inp_mon [AXI_W] WDATA=a933da4b WSTRB=5 WVALID=1 WREADY=1
UVM_INFO axi_op_monitor.sv(73) @ 3465: uvm_test_top.env.op_agt.op_mon [OP_W] WVALID=1 WREADY=1 WDATA=a933da4b WSTRB=5
UVM_INFO axi_driver.sv(111) @ 3505: uvm_test_top.env.inp_agt.inp_drv [AXI_AW] AWADDR=0 AWPROT=100 AWVALID=1 AWREADY=1
UVM_INFO axi_inp_monitor.sv(64) @ 3515: uvm_test_top.env.inp_agt.inp_mon [AXI_AW] AWADDR=0 AWPROT=100 AWVALID=1 AWREADY=1
UVM_INFO axi_op_monitor.sv(64) @ 3515: uvm_test_top.env.op_agt.op_mon [OP_AW] AWVALID=1 AWREADY=1 AWADDR=0 AWPROT=100
reg_file[0] = 8933f64b
reg_file[1] = 8dbf2750
reg_file[2] = 32576733
reg_file[3] = 00000000
reg_file[4] = 00000000
reg_file[5] = 00000000
reg_file[6] = 00000000
reg_file[7] = 00000000
reg_file[8] = 00000000
reg_file[9] = 00000000
reg_file[10] = 00000000
reg_file[11] = 00000000
reg_file[12] = 00000000
reg_file[13] = 00000000
reg_file[14] = 00000000
reg_file[15] = 00000000
UVM_INFO axi_driver.sv(145) @ 3525: uvm_test_top.env.inp_agt.inp_drv [AXI_B] BREADY=1 BVALID=1 BRESP=0
UVM_INFO axi_inp_monitor.sv(81) @ 3535: uvm_test_top.env.inp_agt.inp_mon [AXI_B] BREADY=1 BRESP=0 BVALID=1
UVM_INFO axi_subscriber.sv(158) @ 3535: uvm_test_top.env.sub [sub] [DRIVER]:INPUT RECIEVED
UVM_INFO axi_op_monitor.sv(81) @ 3535: uvm_test_top.env.op_agt.op_mon [OP_B] BVALID=1 BREADY=1 BRESP=0
UVM_INFO axi_scoreboard.sv(42) @ 3535: uvm_test_top.env.scb [SCB] 5
UVM_INFO axi_scoreboard.sv(105) @ 3535: uvm_test_top.env.scb [SCB] WRITE ADDRESS PASS: Exp_AWADDR=0 Actual_AWADDR=0
UVM_INFO axi_scoreboard.sv(110) @ 3535: uvm_test_top.env.scb [SCB] WRITE DATA PASS: Exp_WDATA=a933da4b Actual_WDATA=a933da4b
UVM_INFO axi_scoreboard.sv(115) @ 3535: uvm_test_top.env.scb [SCB] WRITE WSTRB PASS: Exp_WSTRB=5 Actual_WSTRB=5
UVM_INFO axi_scoreboard.sv(120) @ 3535: uvm_test_top.env.scb [SCB] WRITE BRESP PASS: Exp_BRESP=0 Actual_BRESP=0
UVM_INFO axi_driver.sv(129) @ 3555: uvm_test_top.env.inp_agt.inp_drv [AXI_W] WDATA=8c30ede6 WSTRB=0 WVALID=1 WREADY=1
UVM_INFO axi_inp_monitor.sv(73) @ 3565: uvm_test_top.env.inp_agt.inp_mon [AXI_W] WDATA=8c30ede6 WSTRB=0 WVALID=1 WREADY=1
UVM_INFO axi_op_monitor.sv(73) @ 3565: uvm_test_top.env.op_agt.op_mon [OP_W] WVALID=1 WREADY=1 WDATA=8c30ede6 WSTRB=0
UVM_INFO axi_driver.sv(111) @ 3605: uvm_test_top.env.inp_agt.inp_drv [AXI_AW] AWADDR=8 AWPROT=110 AWVALID=1 AWREADY=1
UVM_INFO axi_inp_monitor.sv(64) @ 3615: uvm_test_top.env.inp_agt.inp_mon [AXI_AW] AWADDR=8 AWPROT=110 AWVALID=1 AWREADY=1
UVM_INFO axi_op_monitor.sv(64) @ 3615: uvm_test_top.env.op_agt.op_mon [OP_AW] AWVALID=1 AWREADY=1 AWADDR=8 AWPROT=110
reg_file[0] = 8933f64b
reg_file[1] = 8dbf2750
reg_file[2] = 32576733
reg_file[3] = 00000000
reg_file[4] = 00000000
reg_file[5] = 00000000
reg_file[6] = 00000000
reg_file[7] = 00000000
reg_file[8] = 00000000
reg_file[9] = 00000000
reg_file[10] = 00000000
reg_file[11] = 00000000
reg_file[12] = 00000000
reg_file[13] = 00000000
reg_file[14] = 00000000
reg_file[15] = 00000000
UVM_INFO axi_driver.sv(145) @ 3625: uvm_test_top.env.inp_agt.inp_drv [AXI_B] BREADY=1 BVALID=1 BRESP=0
UVM_INFO axi_inp_monitor.sv(81) @ 3635: uvm_test_top.env.inp_agt.inp_mon [AXI_B] BREADY=1 BRESP=0 BVALID=1
UVM_INFO axi_subscriber.sv(158) @ 3635: uvm_test_top.env.sub [sub] [DRIVER]:INPUT RECIEVED
UVM_INFO axi_op_monitor.sv(81) @ 3635: uvm_test_top.env.op_agt.op_mon [OP_B] BVALID=1 BREADY=1 BRESP=0
UVM_INFO axi_scoreboard.sv(42) @ 3635: uvm_test_top.env.scb [SCB] 0
UVM_INFO axi_scoreboard.sv(105) @ 3635: uvm_test_top.env.scb [SCB] WRITE ADDRESS PASS: Exp_AWADDR=8 Actual_AWADDR=8
UVM_INFO axi_scoreboard.sv(110) @ 3635: uvm_test_top.env.scb [SCB] WRITE DATA PASS: Exp_WDATA=8c30ede6 Actual_WDATA=8c30ede6
UVM_INFO axi_scoreboard.sv(115) @ 3635: uvm_test_top.env.scb [SCB] WRITE WSTRB PASS: Exp_WSTRB=0 Actual_WSTRB=0
UVM_INFO axi_scoreboard.sv(120) @ 3635: uvm_test_top.env.scb [SCB] WRITE BRESP PASS: Exp_BRESP=0 Actual_BRESP=0
UVM_INFO axi_driver.sv(129) @ 3655: uvm_test_top.env.inp_agt.inp_drv [AXI_W] WDATA=3993d35e WSTRB=a WVALID=1 WREADY=1
UVM_INFO axi_inp_monitor.sv(73) @ 3665: uvm_test_top.env.inp_agt.inp_mon [AXI_W] WDATA=3993d35e WSTRB=a WVALID=1 WREADY=1
UVM_INFO axi_op_monitor.sv(73) @ 3665: uvm_test_top.env.op_agt.op_mon [OP_W] WVALID=1 WREADY=1 WDATA=3993d35e WSTRB=a
UVM_INFO axi_driver.sv(111) @ 3705: uvm_test_top.env.inp_agt.inp_drv [AXI_AW] AWADDR=0 AWPROT=100 AWVALID=1 AWREADY=1
UVM_INFO axi_inp_monitor.sv(64) @ 3715: uvm_test_top.env.inp_agt.inp_mon [AXI_AW] AWADDR=0 AWPROT=100 AWVALID=1 AWREADY=1
UVM_INFO axi_op_monitor.sv(64) @ 3715: uvm_test_top.env.op_agt.op_mon [OP_AW] AWVALID=1 AWREADY=1 AWADDR=0 AWPROT=100
reg_file[0] = 3933d34b
reg_file[1] = 8dbf2750
reg_file[2] = 32576733
reg_file[3] = 00000000
reg_file[4] = 00000000
reg_file[5] = 00000000
reg_file[6] = 00000000
reg_file[7] = 00000000
reg_file[8] = 00000000
reg_file[9] = 00000000
reg_file[10] = 00000000
reg_file[11] = 00000000
reg_file[12] = 00000000
reg_file[13] = 00000000
reg_file[14] = 00000000
reg_file[15] = 00000000
UVM_INFO axi_driver.sv(145) @ 3725: uvm_test_top.env.inp_agt.inp_drv [AXI_B] BREADY=1 BVALID=1 BRESP=0
UVM_INFO axi_inp_monitor.sv(81) @ 3735: uvm_test_top.env.inp_agt.inp_mon [AXI_B] BREADY=1 BRESP=0 BVALID=1
UVM_INFO axi_subscriber.sv(158) @ 3735: uvm_test_top.env.sub [sub] [DRIVER]:INPUT RECIEVED
UVM_INFO axi_op_monitor.sv(81) @ 3735: uvm_test_top.env.op_agt.op_mon [OP_B] BVALID=1 BREADY=1 BRESP=0
UVM_INFO axi_scoreboard.sv(42) @ 3735: uvm_test_top.env.scb [SCB] a
UVM_INFO axi_scoreboard.sv(105) @ 3735: uvm_test_top.env.scb [SCB] WRITE ADDRESS PASS: Exp_AWADDR=0 Actual_AWADDR=0
UVM_INFO axi_scoreboard.sv(110) @ 3735: uvm_test_top.env.scb [SCB] WRITE DATA PASS: Exp_WDATA=3993d35e Actual_WDATA=3993d35e
UVM_INFO axi_scoreboard.sv(115) @ 3735: uvm_test_top.env.scb [SCB] WRITE WSTRB PASS: Exp_WSTRB=a Actual_WSTRB=a
UVM_INFO axi_scoreboard.sv(120) @ 3735: uvm_test_top.env.scb [SCB] WRITE BRESP PASS: Exp_BRESP=0 Actual_BRESP=0
UVM_INFO axi_driver.sv(129) @ 3755: uvm_test_top.env.inp_agt.inp_drv [AXI_W] WDATA=6b790af9 WSTRB=9 WVALID=1 WREADY=1
UVM_INFO axi_inp_monitor.sv(73) @ 3765: uvm_test_top.env.inp_agt.inp_mon [AXI_W] WDATA=6b790af9 WSTRB=9 WVALID=1 WREADY=1
UVM_INFO axi_op_monitor.sv(73) @ 3765: uvm_test_top.env.op_agt.op_mon [OP_W] WVALID=1 WREADY=1 WDATA=6b790af9 WSTRB=9
UVM_INFO axi_driver.sv(111) @ 3805: uvm_test_top.env.inp_agt.inp_drv [AXI_AW] AWADDR=8 AWPROT=110 AWVALID=1 AWREADY=1
UVM_INFO axi_inp_monitor.sv(64) @ 3815: uvm_test_top.env.inp_agt.inp_mon [AXI_AW] AWADDR=8 AWPROT=110 AWVALID=1 AWREADY=1
UVM_INFO axi_op_monitor.sv(64) @ 3815: uvm_test_top.env.op_agt.op_mon [OP_AW] AWVALID=1 AWREADY=1 AWADDR=8 AWPROT=110
reg_file[0] = 3933d34b
reg_file[1] = 8dbf2750
reg_file[2] = 6b5767f9
reg_file[3] = 00000000
reg_file[4] = 00000000
reg_file[5] = 00000000
reg_file[6] = 00000000
reg_file[7] = 00000000
reg_file[8] = 00000000
reg_file[9] = 00000000
reg_file[10] = 00000000
reg_file[11] = 00000000
reg_file[12] = 00000000
reg_file[13] = 00000000
reg_file[14] = 00000000
reg_file[15] = 00000000
UVM_INFO axi_driver.sv(145) @ 3825: uvm_test_top.env.inp_agt.inp_drv [AXI_B] BREADY=1 BVALID=1 BRESP=0
UVM_INFO axi_inp_monitor.sv(81) @ 3835: uvm_test_top.env.inp_agt.inp_mon [AXI_B] BREADY=1 BRESP=0 BVALID=1
UVM_INFO axi_subscriber.sv(158) @ 3835: uvm_test_top.env.sub [sub] [DRIVER]:INPUT RECIEVED
UVM_INFO axi_op_monitor.sv(81) @ 3835: uvm_test_top.env.op_agt.op_mon [OP_B] BVALID=1 BREADY=1 BRESP=0
UVM_INFO axi_scoreboard.sv(42) @ 3835: uvm_test_top.env.scb [SCB] 9
UVM_INFO axi_scoreboard.sv(105) @ 3835: uvm_test_top.env.scb [SCB] WRITE ADDRESS PASS: Exp_AWADDR=8 Actual_AWADDR=8
UVM_INFO axi_scoreboard.sv(110) @ 3835: uvm_test_top.env.scb [SCB] WRITE DATA PASS: Exp_WDATA=6b790af9 Actual_WDATA=6b790af9
UVM_INFO axi_scoreboard.sv(115) @ 3835: uvm_test_top.env.scb [SCB] WRITE WSTRB PASS: Exp_WSTRB=9 Actual_WSTRB=9
UVM_INFO axi_scoreboard.sv(120) @ 3835: uvm_test_top.env.scb [SCB] WRITE BRESP PASS: Exp_BRESP=0 Actual_BRESP=0
UVM_INFO axi_driver.sv(129) @ 3855: uvm_test_top.env.inp_agt.inp_drv [AXI_W] WDATA=a86265c9 WSTRB=e WVALID=1 WREADY=1
UVM_INFO axi_inp_monitor.sv(73) @ 3865: uvm_test_top.env.inp_agt.inp_mon [AXI_W] WDATA=a86265c9 WSTRB=e WVALID=1 WREADY=1
UVM_INFO axi_op_monitor.sv(73) @ 3865: uvm_test_top.env.op_agt.op_mon [OP_W] WVALID=1 WREADY=1 WDATA=a86265c9 WSTRB=e
UVM_INFO axi_driver.sv(111) @ 3905: uvm_test_top.env.inp_agt.inp_drv [AXI_AW] AWADDR=8 AWPROT=100 AWVALID=1 AWREADY=1
UVM_INFO axi_inp_monitor.sv(64) @ 3915: uvm_test_top.env.inp_agt.inp_mon [AXI_AW] AWADDR=8 AWPROT=100 AWVALID=1 AWREADY=1
UVM_INFO axi_op_monitor.sv(64) @ 3915: uvm_test_top.env.op_agt.op_mon [OP_AW] AWVALID=1 AWREADY=1 AWADDR=8 AWPROT=100
reg_file[0] = 3933d34b
reg_file[1] = 8dbf2750
reg_file[2] = a86265f9
reg_file[3] = 00000000
reg_file[4] = 00000000
reg_file[5] = 00000000
reg_file[6] = 00000000
reg_file[7] = 00000000
reg_file[8] = 00000000
reg_file[9] = 00000000
reg_file[10] = 00000000
reg_file[11] = 00000000
reg_file[12] = 00000000
reg_file[13] = 00000000
reg_file[14] = 00000000
reg_file[15] = 00000000
UVM_INFO axi_driver.sv(145) @ 3925: uvm_test_top.env.inp_agt.inp_drv [AXI_B] BREADY=1 BVALID=1 BRESP=0
UVM_INFO axi_inp_monitor.sv(81) @ 3935: uvm_test_top.env.inp_agt.inp_mon [AXI_B] BREADY=1 BRESP=0 BVALID=1
UVM_INFO axi_subscriber.sv(158) @ 3935: uvm_test_top.env.sub [sub] [DRIVER]:INPUT RECIEVED
UVM_INFO axi_op_monitor.sv(81) @ 3935: uvm_test_top.env.op_agt.op_mon [OP_B] BVALID=1 BREADY=1 BRESP=0
UVM_INFO axi_scoreboard.sv(42) @ 3935: uvm_test_top.env.scb [SCB] e
UVM_INFO axi_scoreboard.sv(105) @ 3935: uvm_test_top.env.scb [SCB] WRITE ADDRESS PASS: Exp_AWADDR=8 Actual_AWADDR=8
UVM_INFO axi_scoreboard.sv(110) @ 3935: uvm_test_top.env.scb [SCB] WRITE DATA PASS: Exp_WDATA=a86265c9 Actual_WDATA=a86265c9
UVM_INFO axi_scoreboard.sv(115) @ 3935: uvm_test_top.env.scb [SCB] WRITE WSTRB PASS: Exp_WSTRB=e Actual_WSTRB=e
UVM_INFO axi_scoreboard.sv(120) @ 3935: uvm_test_top.env.scb [SCB] WRITE BRESP PASS: Exp_BRESP=0 Actual_BRESP=0
UVM_INFO axi_driver.sv(129) @ 3955: uvm_test_top.env.inp_agt.inp_drv [AXI_W] WDATA=d05f1bb9 WSTRB=5 WVALID=1 WREADY=1
UVM_INFO axi_inp_monitor.sv(73) @ 3965: uvm_test_top.env.inp_agt.inp_mon [AXI_W] WDATA=d05f1bb9 WSTRB=5 WVALID=1 WREADY=1
UVM_INFO axi_op_monitor.sv(73) @ 3965: uvm_test_top.env.op_agt.op_mon [OP_W] WVALID=1 WREADY=1 WDATA=d05f1bb9 WSTRB=5
UVM_INFO axi_driver.sv(111) @ 4005: uvm_test_top.env.inp_agt.inp_drv [AXI_AW] AWADDR=0 AWPROT=1 AWVALID=1 AWREADY=1
UVM_INFO axi_inp_monitor.sv(64) @ 4015: uvm_test_top.env.inp_agt.inp_mon [AXI_AW] AWADDR=0 AWPROT=1 AWVALID=1 AWREADY=1
UVM_INFO axi_op_monitor.sv(64) @ 4015: uvm_test_top.env.op_agt.op_mon [OP_AW] AWVALID=1 AWREADY=1 AWADDR=0 AWPROT=1
reg_file[0] = 395fd3b9
reg_file[1] = 8dbf2750
reg_file[2] = a86265f9
reg_file[3] = 00000000
reg_file[4] = 00000000
reg_file[5] = 00000000
reg_file[6] = 00000000
reg_file[7] = 00000000
reg_file[8] = 00000000
reg_file[9] = 00000000
reg_file[10] = 00000000
reg_file[11] = 00000000
reg_file[12] = 00000000
reg_file[13] = 00000000
reg_file[14] = 00000000
reg_file[15] = 00000000
UVM_INFO axi_driver.sv(145) @ 4025: uvm_test_top.env.inp_agt.inp_drv [AXI_B] BREADY=1 BVALID=1 BRESP=0
UVM_INFO axi_inp_monitor.sv(81) @ 4035: uvm_test_top.env.inp_agt.inp_mon [AXI_B] BREADY=1 BRESP=0 BVALID=1
UVM_INFO axi_subscriber.sv(158) @ 4035: uvm_test_top.env.sub [sub] [DRIVER]:INPUT RECIEVED
UVM_INFO axi_op_monitor.sv(81) @ 4035: uvm_test_top.env.op_agt.op_mon [OP_B] BVALID=1 BREADY=1 BRESP=0
UVM_INFO axi_scoreboard.sv(42) @ 4035: uvm_test_top.env.scb [SCB] 5
UVM_INFO axi_scoreboard.sv(105) @ 4035: uvm_test_top.env.scb [SCB] WRITE ADDRESS PASS: Exp_AWADDR=0 Actual_AWADDR=0
UVM_INFO axi_scoreboard.sv(110) @ 4035: uvm_test_top.env.scb [SCB] WRITE DATA PASS: Exp_WDATA=d05f1bb9 Actual_WDATA=d05f1bb9
UVM_INFO axi_scoreboard.sv(115) @ 4035: uvm_test_top.env.scb [SCB] WRITE WSTRB PASS: Exp_WSTRB=5 Actual_WSTRB=5
UVM_INFO axi_scoreboard.sv(120) @ 4035: uvm_test_top.env.scb [SCB] WRITE BRESP PASS: Exp_BRESP=0 Actual_BRESP=0
UVM_INFO axi_driver.sv(129) @ 4055: uvm_test_top.env.inp_agt.inp_drv [AXI_W] WDATA=1c7559f1 WSTRB=0 WVALID=1 WREADY=1
UVM_INFO axi_inp_monitor.sv(73) @ 4065: uvm_test_top.env.inp_agt.inp_mon [AXI_W] WDATA=1c7559f1 WSTRB=0 WVALID=1 WREADY=1
UVM_INFO axi_op_monitor.sv(73) @ 4065: uvm_test_top.env.op_agt.op_mon [OP_W] WVALID=1 WREADY=1 WDATA=1c7559f1 WSTRB=0
UVM_INFO axi_driver.sv(111) @ 4105: uvm_test_top.env.inp_agt.inp_drv [AXI_AW] AWADDR=0 AWPROT=1 AWVALID=1 AWREADY=1
UVM_INFO axi_inp_monitor.sv(64) @ 4115: uvm_test_top.env.inp_agt.inp_mon [AXI_AW] AWADDR=0 AWPROT=1 AWVALID=1 AWREADY=1
UVM_INFO axi_op_monitor.sv(64) @ 4115: uvm_test_top.env.op_agt.op_mon [OP_AW] AWVALID=1 AWREADY=1 AWADDR=0 AWPROT=1
reg_file[0] = 395fd3b9
reg_file[1] = 8dbf2750
reg_file[2] = a86265f9
reg_file[3] = 00000000
reg_file[4] = 00000000
reg_file[5] = 00000000
reg_file[6] = 00000000
reg_file[7] = 00000000
reg_file[8] = 00000000
reg_file[9] = 00000000
reg_file[10] = 00000000
reg_file[11] = 00000000
reg_file[12] = 00000000
reg_file[13] = 00000000
reg_file[14] = 00000000
reg_file[15] = 00000000
UVM_INFO axi_driver.sv(145) @ 4125: uvm_test_top.env.inp_agt.inp_drv [AXI_B] BREADY=1 BVALID=1 BRESP=0
UVM_INFO axi_inp_monitor.sv(81) @ 4135: uvm_test_top.env.inp_agt.inp_mon [AXI_B] BREADY=1 BRESP=0 BVALID=1
UVM_INFO axi_subscriber.sv(158) @ 4135: uvm_test_top.env.sub [sub] [DRIVER]:INPUT RECIEVED
UVM_INFO axi_op_monitor.sv(81) @ 4135: uvm_test_top.env.op_agt.op_mon [OP_B] BVALID=1 BREADY=1 BRESP=0
UVM_INFO axi_scoreboard.sv(42) @ 4135: uvm_test_top.env.scb [SCB] 0
UVM_INFO axi_scoreboard.sv(105) @ 4135: uvm_test_top.env.scb [SCB] WRITE ADDRESS PASS: Exp_AWADDR=0 Actual_AWADDR=0
UVM_INFO axi_scoreboard.sv(110) @ 4135: uvm_test_top.env.scb [SCB] WRITE DATA PASS: Exp_WDATA=1c7559f1 Actual_WDATA=1c7559f1
UVM_INFO axi_scoreboard.sv(115) @ 4135: uvm_test_top.env.scb [SCB] WRITE WSTRB PASS: Exp_WSTRB=0 Actual_WSTRB=0
UVM_INFO axi_scoreboard.sv(120) @ 4135: uvm_test_top.env.scb [SCB] WRITE BRESP PASS: Exp_BRESP=0 Actual_BRESP=0
UVM_INFO axi_driver.sv(129) @ 4155: uvm_test_top.env.inp_agt.inp_drv [AXI_W] WDATA=58d28827 WSTRB=f WVALID=1 WREADY=1
UVM_INFO axi_inp_monitor.sv(73) @ 4165: uvm_test_top.env.inp_agt.inp_mon [AXI_W] WDATA=58d28827 WSTRB=f WVALID=1 WREADY=1
UVM_INFO axi_op_monitor.sv(73) @ 4165: uvm_test_top.env.op_agt.op_mon [OP_W] WVALID=1 WREADY=1 WDATA=58d28827 WSTRB=f
UVM_INFO axi_driver.sv(111) @ 4205: uvm_test_top.env.inp_agt.inp_drv [AXI_AW] AWADDR=0 AWPROT=1 AWVALID=1 AWREADY=1
UVM_INFO axi_inp_monitor.sv(64) @ 4215: uvm_test_top.env.inp_agt.inp_mon [AXI_AW] AWADDR=0 AWPROT=1 AWVALID=1 AWREADY=1
UVM_INFO axi_op_monitor.sv(64) @ 4215: uvm_test_top.env.op_agt.op_mon [OP_AW] AWVALID=1 AWREADY=1 AWADDR=0 AWPROT=1
reg_file[0] = 58d28827
reg_file[1] = 8dbf2750
reg_file[2] = a86265f9
reg_file[3] = 00000000
reg_file[4] = 00000000
reg_file[5] = 00000000
reg_file[6] = 00000000
reg_file[7] = 00000000
reg_file[8] = 00000000
reg_file[9] = 00000000
reg_file[10] = 00000000
reg_file[11] = 00000000
reg_file[12] = 00000000
reg_file[13] = 00000000
reg_file[14] = 00000000
reg_file[15] = 00000000
UVM_INFO axi_driver.sv(145) @ 4225: uvm_test_top.env.inp_agt.inp_drv [AXI_B] BREADY=1 BVALID=1 BRESP=0
UVM_INFO axi_inp_monitor.sv(81) @ 4235: uvm_test_top.env.inp_agt.inp_mon [AXI_B] BREADY=1 BRESP=0 BVALID=1
UVM_INFO axi_subscriber.sv(158) @ 4235: uvm_test_top.env.sub [sub] [DRIVER]:INPUT RECIEVED
UVM_INFO axi_op_monitor.sv(81) @ 4235: uvm_test_top.env.op_agt.op_mon [OP_B] BVALID=1 BREADY=1 BRESP=0
UVM_INFO axi_scoreboard.sv(42) @ 4235: uvm_test_top.env.scb [SCB] f
UVM_INFO axi_scoreboard.sv(105) @ 4235: uvm_test_top.env.scb [SCB] WRITE ADDRESS PASS: Exp_AWADDR=0 Actual_AWADDR=0
UVM_INFO axi_scoreboard.sv(110) @ 4235: uvm_test_top.env.scb [SCB] WRITE DATA PASS: Exp_WDATA=58d28827 Actual_WDATA=58d28827
UVM_INFO axi_scoreboard.sv(115) @ 4235: uvm_test_top.env.scb [SCB] WRITE WSTRB PASS: Exp_WSTRB=f Actual_WSTRB=f
UVM_INFO axi_scoreboard.sv(120) @ 4235: uvm_test_top.env.scb [SCB] WRITE BRESP PASS: Exp_BRESP=0 Actual_BRESP=0
UVM_INFO axi_driver.sv(129) @ 4255: uvm_test_top.env.inp_agt.inp_drv [AXI_W] WDATA=bad4178c WSTRB=7 WVALID=1 WREADY=1
UVM_INFO axi_inp_monitor.sv(73) @ 4265: uvm_test_top.env.inp_agt.inp_mon [AXI_W] WDATA=bad4178c WSTRB=7 WVALID=1 WREADY=1
UVM_INFO axi_op_monitor.sv(73) @ 4265: uvm_test_top.env.op_agt.op_mon [OP_W] WVALID=1 WREADY=1 WDATA=bad4178c WSTRB=7
UVM_INFO axi_driver.sv(111) @ 4305: uvm_test_top.env.inp_agt.inp_drv [AXI_AW] AWADDR=4 AWPROT=101 AWVALID=1 AWREADY=1
UVM_INFO axi_inp_monitor.sv(64) @ 4315: uvm_test_top.env.inp_agt.inp_mon [AXI_AW] AWADDR=4 AWPROT=101 AWVALID=1 AWREADY=1
UVM_INFO axi_op_monitor.sv(64) @ 4315: uvm_test_top.env.op_agt.op_mon [OP_AW] AWVALID=1 AWREADY=1 AWADDR=4 AWPROT=101
reg_file[0] = 58d28827
reg_file[1] = 8dd4178c
reg_file[2] = a86265f9
reg_file[3] = 00000000
reg_file[4] = 00000000
reg_file[5] = 00000000
reg_file[6] = 00000000
reg_file[7] = 00000000
reg_file[8] = 00000000
reg_file[9] = 00000000
reg_file[10] = 00000000
reg_file[11] = 00000000
reg_file[12] = 00000000
reg_file[13] = 00000000
reg_file[14] = 00000000
reg_file[15] = 00000000
UVM_INFO axi_driver.sv(145) @ 4325: uvm_test_top.env.inp_agt.inp_drv [AXI_B] BREADY=1 BVALID=1 BRESP=0
UVM_INFO axi_inp_monitor.sv(81) @ 4335: uvm_test_top.env.inp_agt.inp_mon [AXI_B] BREADY=1 BRESP=0 BVALID=1
UVM_INFO axi_subscriber.sv(158) @ 4335: uvm_test_top.env.sub [sub] [DRIVER]:INPUT RECIEVED
UVM_INFO axi_op_monitor.sv(81) @ 4335: uvm_test_top.env.op_agt.op_mon [OP_B] BVALID=1 BREADY=1 BRESP=0
UVM_INFO axi_scoreboard.sv(42) @ 4335: uvm_test_top.env.scb [SCB] 7
UVM_INFO axi_scoreboard.sv(105) @ 4335: uvm_test_top.env.scb [SCB] WRITE ADDRESS PASS: Exp_AWADDR=4 Actual_AWADDR=4
UVM_INFO axi_scoreboard.sv(110) @ 4335: uvm_test_top.env.scb [SCB] WRITE DATA PASS: Exp_WDATA=bad4178c Actual_WDATA=bad4178c
UVM_INFO axi_scoreboard.sv(115) @ 4335: uvm_test_top.env.scb [SCB] WRITE WSTRB PASS: Exp_WSTRB=7 Actual_WSTRB=7
UVM_INFO axi_scoreboard.sv(120) @ 4335: uvm_test_top.env.scb [SCB] WRITE BRESP PASS: Exp_BRESP=0 Actual_BRESP=0
UVM_INFO axi_driver.sv(129) @ 4355: uvm_test_top.env.inp_agt.inp_drv [AXI_W] WDATA=fab1c024 WSTRB=e WVALID=1 WREADY=1
UVM_INFO axi_inp_monitor.sv(73) @ 4365: uvm_test_top.env.inp_agt.inp_mon [AXI_W] WDATA=fab1c024 WSTRB=e WVALID=1 WREADY=1
UVM_INFO axi_op_monitor.sv(73) @ 4365: uvm_test_top.env.op_agt.op_mon [OP_W] WVALID=1 WREADY=1 WDATA=fab1c024 WSTRB=e
UVM_INFO axi_driver.sv(111) @ 4405: uvm_test_top.env.inp_agt.inp_drv [AXI_AW] AWADDR=8 AWPROT=100 AWVALID=1 AWREADY=1
UVM_INFO axi_inp_monitor.sv(64) @ 4415: uvm_test_top.env.inp_agt.inp_mon [AXI_AW] AWADDR=8 AWPROT=100 AWVALID=1 AWREADY=1
UVM_INFO axi_op_monitor.sv(64) @ 4415: uvm_test_top.env.op_agt.op_mon [OP_AW] AWVALID=1 AWREADY=1 AWADDR=8 AWPROT=100
reg_file[0] = 58d28827
reg_file[1] = 8dd4178c
reg_file[2] = fab1c0f9
reg_file[3] = 00000000
reg_file[4] = 00000000
reg_file[5] = 00000000
reg_file[6] = 00000000
reg_file[7] = 00000000
reg_file[8] = 00000000
reg_file[9] = 00000000
reg_file[10] = 00000000
reg_file[11] = 00000000
reg_file[12] = 00000000
reg_file[13] = 00000000
reg_file[14] = 00000000
reg_file[15] = 00000000
UVM_INFO axi_driver.sv(145) @ 4425: uvm_test_top.env.inp_agt.inp_drv [AXI_B] BREADY=1 BVALID=1 BRESP=0
UVM_INFO axi_inp_monitor.sv(81) @ 4435: uvm_test_top.env.inp_agt.inp_mon [AXI_B] BREADY=1 BRESP=0 BVALID=1
UVM_INFO axi_subscriber.sv(158) @ 4435: uvm_test_top.env.sub [sub] [DRIVER]:INPUT RECIEVED
UVM_INFO axi_op_monitor.sv(81) @ 4435: uvm_test_top.env.op_agt.op_mon [OP_B] BVALID=1 BREADY=1 BRESP=0
UVM_INFO axi_scoreboard.sv(42) @ 4435: uvm_test_top.env.scb [SCB] e
UVM_INFO axi_scoreboard.sv(105) @ 4435: uvm_test_top.env.scb [SCB] WRITE ADDRESS PASS: Exp_AWADDR=8 Actual_AWADDR=8
UVM_INFO axi_scoreboard.sv(110) @ 4435: uvm_test_top.env.scb [SCB] WRITE DATA PASS: Exp_WDATA=fab1c024 Actual_WDATA=fab1c024
UVM_INFO axi_scoreboard.sv(115) @ 4435: uvm_test_top.env.scb [SCB] WRITE WSTRB PASS: Exp_WSTRB=e Actual_WSTRB=e
UVM_INFO axi_scoreboard.sv(120) @ 4435: uvm_test_top.env.scb [SCB] WRITE BRESP PASS: Exp_BRESP=0 Actual_BRESP=0
UVM_INFO axi_driver.sv(129) @ 4455: uvm_test_top.env.inp_agt.inp_drv [AXI_W] WDATA=175d6823 WSTRB=b WVALID=1 WREADY=1
UVM_INFO axi_inp_monitor.sv(73) @ 4465: uvm_test_top.env.inp_agt.inp_mon [AXI_W] WDATA=175d6823 WSTRB=b WVALID=1 WREADY=1
UVM_INFO axi_op_monitor.sv(73) @ 4465: uvm_test_top.env.op_agt.op_mon [OP_W] WVALID=1 WREADY=1 WDATA=175d6823 WSTRB=b
UVM_INFO axi_driver.sv(111) @ 4505: uvm_test_top.env.inp_agt.inp_drv [AXI_AW] AWADDR=0 AWPROT=0 AWVALID=1 AWREADY=1
UVM_INFO axi_inp_monitor.sv(64) @ 4515: uvm_test_top.env.inp_agt.inp_mon [AXI_AW] AWADDR=0 AWPROT=0 AWVALID=1 AWREADY=1
UVM_INFO axi_op_monitor.sv(64) @ 4515: uvm_test_top.env.op_agt.op_mon [OP_AW] AWVALID=1 AWREADY=1 AWADDR=0 AWPROT=0
reg_file[0] = 17d26823
reg_file[1] = 8dd4178c
reg_file[2] = fab1c0f9
reg_file[3] = 00000000
reg_file[4] = 00000000
reg_file[5] = 00000000
reg_file[6] = 00000000
reg_file[7] = 00000000
reg_file[8] = 00000000
reg_file[9] = 00000000
reg_file[10] = 00000000
reg_file[11] = 00000000
reg_file[12] = 00000000
reg_file[13] = 00000000
reg_file[14] = 00000000
reg_file[15] = 00000000
UVM_INFO axi_driver.sv(145) @ 4525: uvm_test_top.env.inp_agt.inp_drv [AXI_B] BREADY=1 BVALID=1 BRESP=0
UVM_INFO axi_inp_monitor.sv(81) @ 4535: uvm_test_top.env.inp_agt.inp_mon [AXI_B] BREADY=1 BRESP=0 BVALID=1
UVM_INFO axi_subscriber.sv(158) @ 4535: uvm_test_top.env.sub [sub] [DRIVER]:INPUT RECIEVED
UVM_INFO axi_op_monitor.sv(81) @ 4535: uvm_test_top.env.op_agt.op_mon [OP_B] BVALID=1 BREADY=1 BRESP=0
UVM_INFO axi_scoreboard.sv(42) @ 4535: uvm_test_top.env.scb [SCB] b
UVM_INFO axi_scoreboard.sv(105) @ 4535: uvm_test_top.env.scb [SCB] WRITE ADDRESS PASS: Exp_AWADDR=0 Actual_AWADDR=0
UVM_INFO axi_scoreboard.sv(110) @ 4535: uvm_test_top.env.scb [SCB] WRITE DATA PASS: Exp_WDATA=175d6823 Actual_WDATA=175d6823
UVM_INFO axi_scoreboard.sv(115) @ 4535: uvm_test_top.env.scb [SCB] WRITE WSTRB PASS: Exp_WSTRB=b Actual_WSTRB=b
UVM_INFO axi_scoreboard.sv(120) @ 4535: uvm_test_top.env.scb [SCB] WRITE BRESP PASS: Exp_BRESP=0 Actual_BRESP=0
UVM_INFO axi_driver.sv(129) @ 4555: uvm_test_top.env.inp_agt.inp_drv [AXI_W] WDATA=85029e12 WSTRB=8 WVALID=1 WREADY=1
UVM_INFO axi_inp_monitor.sv(73) @ 4565: uvm_test_top.env.inp_agt.inp_mon [AXI_W] WDATA=85029e12 WSTRB=8 WVALID=1 WREADY=1
UVM_INFO axi_op_monitor.sv(73) @ 4565: uvm_test_top.env.op_agt.op_mon [OP_W] WVALID=1 WREADY=1 WDATA=85029e12 WSTRB=8
UVM_INFO axi_driver.sv(111) @ 4605: uvm_test_top.env.inp_agt.inp_drv [AXI_AW] AWADDR=8 AWPROT=101 AWVALID=1 AWREADY=1
UVM_INFO axi_inp_monitor.sv(64) @ 4615: uvm_test_top.env.inp_agt.inp_mon [AXI_AW] AWADDR=8 AWPROT=101 AWVALID=1 AWREADY=1
UVM_INFO axi_op_monitor.sv(64) @ 4615: uvm_test_top.env.op_agt.op_mon [OP_AW] AWVALID=1 AWREADY=1 AWADDR=8 AWPROT=101
reg_file[0] = 17d26823
reg_file[1] = 8dd4178c
reg_file[2] = 85b1c0f9
reg_file[3] = 00000000
reg_file[4] = 00000000
reg_file[5] = 00000000
reg_file[6] = 00000000
reg_file[7] = 00000000
reg_file[8] = 00000000
reg_file[9] = 00000000
reg_file[10] = 00000000
reg_file[11] = 00000000
reg_file[12] = 00000000
reg_file[13] = 00000000
reg_file[14] = 00000000
reg_file[15] = 00000000
UVM_INFO axi_driver.sv(145) @ 4625: uvm_test_top.env.inp_agt.inp_drv [AXI_B] BREADY=1 BVALID=1 BRESP=0
UVM_INFO axi_inp_monitor.sv(81) @ 4635: uvm_test_top.env.inp_agt.inp_mon [AXI_B] BREADY=1 BRESP=0 BVALID=1
UVM_INFO axi_subscriber.sv(158) @ 4635: uvm_test_top.env.sub [sub] [DRIVER]:INPUT RECIEVED
UVM_INFO axi_op_monitor.sv(81) @ 4635: uvm_test_top.env.op_agt.op_mon [OP_B] BVALID=1 BREADY=1 BRESP=0
UVM_INFO axi_scoreboard.sv(42) @ 4635: uvm_test_top.env.scb [SCB] 8
UVM_INFO axi_scoreboard.sv(105) @ 4635: uvm_test_top.env.scb [SCB] WRITE ADDRESS PASS: Exp_AWADDR=8 Actual_AWADDR=8
UVM_INFO axi_scoreboard.sv(110) @ 4635: uvm_test_top.env.scb [SCB] WRITE DATA PASS: Exp_WDATA=85029e12 Actual_WDATA=85029e12
UVM_INFO axi_scoreboard.sv(115) @ 4635: uvm_test_top.env.scb [SCB] WRITE WSTRB PASS: Exp_WSTRB=8 Actual_WSTRB=8
UVM_INFO axi_scoreboard.sv(120) @ 4635: uvm_test_top.env.scb [SCB] WRITE BRESP PASS: Exp_BRESP=0 Actual_BRESP=0
UVM_INFO axi_driver.sv(129) @ 4655: uvm_test_top.env.inp_agt.inp_drv [AXI_W] WDATA=b971abf7 WSTRB=8 WVALID=1 WREADY=1
UVM_INFO axi_inp_monitor.sv(73) @ 4665: uvm_test_top.env.inp_agt.inp_mon [AXI_W] WDATA=b971abf7 WSTRB=8 WVALID=1 WREADY=1
UVM_INFO axi_op_monitor.sv(73) @ 4665: uvm_test_top.env.op_agt.op_mon [OP_W] WVALID=1 WREADY=1 WDATA=b971abf7 WSTRB=8
UVM_INFO axi_driver.sv(111) @ 4705: uvm_test_top.env.inp_agt.inp_drv [AXI_AW] AWADDR=4 AWPROT=0 AWVALID=1 AWREADY=1
UVM_INFO axi_inp_monitor.sv(64) @ 4715: uvm_test_top.env.inp_agt.inp_mon [AXI_AW] AWADDR=4 AWPROT=0 AWVALID=1 AWREADY=1
UVM_INFO axi_op_monitor.sv(64) @ 4715: uvm_test_top.env.op_agt.op_mon [OP_AW] AWVALID=1 AWREADY=1 AWADDR=4 AWPROT=0
reg_file[0] = 17d26823
reg_file[1] = b9d4178c
reg_file[2] = 85b1c0f9
reg_file[3] = 00000000
reg_file[4] = 00000000
reg_file[5] = 00000000
reg_file[6] = 00000000
reg_file[7] = 00000000
reg_file[8] = 00000000
reg_file[9] = 00000000
reg_file[10] = 00000000
reg_file[11] = 00000000
reg_file[12] = 00000000
reg_file[13] = 00000000
reg_file[14] = 00000000
reg_file[15] = 00000000
UVM_INFO axi_driver.sv(145) @ 4725: uvm_test_top.env.inp_agt.inp_drv [AXI_B] BREADY=1 BVALID=1 BRESP=0
UVM_INFO axi_inp_monitor.sv(81) @ 4735: uvm_test_top.env.inp_agt.inp_mon [AXI_B] BREADY=1 BRESP=0 BVALID=1
UVM_INFO axi_subscriber.sv(158) @ 4735: uvm_test_top.env.sub [sub] [DRIVER]:INPUT RECIEVED
UVM_INFO axi_op_monitor.sv(81) @ 4735: uvm_test_top.env.op_agt.op_mon [OP_B] BVALID=1 BREADY=1 BRESP=0
UVM_INFO axi_scoreboard.sv(42) @ 4735: uvm_test_top.env.scb [SCB] 8
UVM_INFO axi_scoreboard.sv(105) @ 4735: uvm_test_top.env.scb [SCB] WRITE ADDRESS PASS: Exp_AWADDR=4 Actual_AWADDR=4
