Command: /fetools/work_area/frontend/Batch_11/spoorthibhat/uvm/projects/AXI_Slave_Verification/src/work/simv +UVM_TESTNAME=test_write_unaligned +UVM_VERBOSITY=UVM_HIGH +ntb_random_seed=25463 -cm line+cond+fsm+tgl+branch+assert -cm_dir work/regression.vdb -cm_name test_write_unaligned_25463 -l work/logs/test_write_unaligned_25463.log +UVM_NO_RELNOTES
Chronologic VCS simulator copyright 1991-2020
Contains Synopsys proprietary information.
Compiler version Q-2020.03-SP2-8_Full64; Runtime version Q-2020.03-SP2-8_Full64;  Sep 18 14:11 2026
----------------------------------------------------------------
UVM-1.1d.Synopsys
(C) 2007-2013 Mentor Graphics Corporation
(C) 2007-2013 Cadence Design Systems, Inc.
(C) 2006-2013 Synopsys, Inc.
(C) 2011-2013 Cypress Semiconductor Corp.
----------------------------------------------------------------
### TOP INITIAL START : time=0
### AFTER CONFIG SET : time=0
UVM_INFO @ 0: reporter [RNTST] Running test test_write_unaligned...
UVM_INFO @ 0: reporter [UVMTOP] UVM testbench topology:
-----------------------------------------------------------------------
Name                            Type                        Size  Value
-----------------------------------------------------------------------
uvm_test_top                    test_write_unaligned        -     @477 
  env                           axi_env                     -     @491 
    inp_agt                     axi_inp_agent               -     @500 
      inp_drv                   axi_driver                  -     @1030
        rd_prt                  uvm_seq_item_pull_port      -     @1056
        rsp_port                uvm_analysis_port           -     @1047
        seq_item_port           uvm_seq_item_pull_port      -     @1038
      inp_mon                   axi_inp_monitor             -     @758 
        inp_monitor_port_read   uvm_analysis_port           -     @775 
        inp_monitor_port_write  uvm_analysis_port           -     @766 
      rd_sqr                    axi_sequencer               -     @907 
        rsp_export              uvm_analysis_export         -     @915 
        seq_item_export         uvm_seq_item_pull_imp       -     @1021
        arbitration_queue       array                       0     -    
        lock_queue              array                       0     -    
        num_last_reqs           integral                    32    'd1  
        num_last_rsps           integral                    32    'd1  
      wr_sqr                    axi_sequencer               -     @784 
        rsp_export              uvm_analysis_export         -     @792 
        seq_item_export         uvm_seq_item_pull_imp       -     @898 
        arbitration_queue       array                       0     -    
        lock_queue              array                       0     -    
        num_last_reqs           integral                    32    'd1  
        num_last_rsps           integral                    32    'd1  
    op_agt                      axi_op_agent                -     @508 
      op_mon                    axi_op_monitor              -     @1084
        op_m_port_read          uvm_analysis_port           -     @1101
        op_m_port_write         uvm_analysis_port           -     @1092
    scb                         axi_scoreboard              -     @516 
      ip_mon_fifo_read          uvm_tlm_analysis_fifo #(T)  -     @577 
        analysis_export         uvm_analysis_imp            -     @621 
        get_ap                  uvm_analysis_port           -     @612 
        get_peek_export         uvm_get_peek_imp            -     @594 
        put_ap                  uvm_analysis_port           -     @603 
        put_export              uvm_put_imp                 -     @585 
      ip_mon_fifo_write         uvm_tlm_analysis_fifo #(T)  -     @524 
        analysis_export         uvm_analysis_imp            -     @568 
        get_ap                  uvm_analysis_port           -     @559 
        get_peek_export         uvm_get_peek_imp            -     @541 
        put_ap                  uvm_analysis_port           -     @550 
        put_export              uvm_put_imp                 -     @532 
      op_mon_fifo_read          uvm_tlm_analysis_fifo #(T)  -     @683 
        analysis_export         uvm_analysis_imp            -     @727 
        get_ap                  uvm_analysis_port           -     @718 
        get_peek_export         uvm_get_peek_imp            -     @700 
        put_ap                  uvm_analysis_port           -     @709 
        put_export              uvm_put_imp                 -     @691 
      op_mon_fifo_write         uvm_tlm_analysis_fifo #(T)  -     @630 
        analysis_export         uvm_analysis_imp            -     @674 
        get_ap                  uvm_analysis_port           -     @665 
        get_peek_export         uvm_get_peek_imp            -     @647 
        put_ap                  uvm_analysis_port           -     @656 
        put_export              uvm_put_imp                 -     @638 
    sub                         axi_subscriber              -     @736 
      analysis_imp              uvm_analysis_imp            -     @744 
-----------------------------------------------------------------------

UVM_INFO axi_driver.sv(30) @ 0: uvm_test_top.env.inp_agt.inp_drv [DRV] Sequence Body started
UVM_INFO axi_driver.sv(111) @ 45: uvm_test_top.env.inp_agt.inp_drv [AXI_AW] AWADDR=4f90c964 AWPROT=0 AWVALID=1 AWREADY=1
UVM_INFO axi_inp_monitor.sv(64) @ 55: uvm_test_top.env.inp_agt.inp_mon [AXI_AW] AWADDR=4f90c964 AWPROT=0 AWVALID=1 AWREADY=1
UVM_INFO axi_op_monitor.sv(64) @ 55: uvm_test_top.env.op_agt.op_mon [OP_AW] AWVALID=1 AWREADY=1 AWADDR=4f90c964 AWPROT=0
UVM_INFO axi_driver.sv(129) @ 75: uvm_test_top.env.inp_agt.inp_drv [AXI_W] WDATA=94ae6a39 WSTRB=3 WVALID=1 WREADY=1
UVM_INFO axi_inp_monitor.sv(73) @ 85: uvm_test_top.env.inp_agt.inp_mon [AXI_W] WDATA=94ae6a39 WSTRB=3 WVALID=1 WREADY=1
UVM_INFO axi_op_monitor.sv(73) @ 85: uvm_test_top.env.op_agt.op_mon [OP_W] WVALID=1 WREADY=1 WDATA=94ae6a39 WSTRB=3
reg_file[0] = 00000000
reg_file[1] = 00000000
reg_file[2] = 00000000
reg_file[3] = 00000000
reg_file[4] = 00000000
reg_file[5] = 00000000
reg_file[6] = 00000000
reg_file[7] = 00000000
reg_file[8] = 00000000
reg_file[9] = 00000000
reg_file[10] = 00000000
reg_file[11] = 00000000
reg_file[12] = 00000000
reg_file[13] = 00000000
reg_file[14] = 00000000
reg_file[15] = 00000000
UVM_INFO axi_driver.sv(145) @ 105: uvm_test_top.env.inp_agt.inp_drv [AXI_B] BREADY=1 BVALID=1 BRESP=11
UVM_INFO axi_inp_monitor.sv(81) @ 115: uvm_test_top.env.inp_agt.inp_mon [AXI_B] BREADY=1 BRESP=11 BVALID=1
UVM_INFO axi_subscriber.sv(158) @ 115: uvm_test_top.env.sub [sub] [DRIVER]:INPUT RECIEVED
UVM_INFO axi_op_monitor.sv(81) @ 115: uvm_test_top.env.op_agt.op_mon [OP_B] BVALID=1 BREADY=1 BRESP=11
UVM_INFO axi_scoreboard.sv(42) @ 115: uvm_test_top.env.scb [SCB] 3
UVM_INFO axi_scoreboard.sv(105) @ 115: uvm_test_top.env.scb [SCB] WRITE ADDRESS PASS: Exp_AWADDR=4f90c964 Actual_AWADDR=4f90c964
UVM_INFO axi_scoreboard.sv(110) @ 115: uvm_test_top.env.scb [SCB] WRITE DATA PASS: Exp_WDATA=94ae6a39 Actual_WDATA=94ae6a39
UVM_INFO axi_scoreboard.sv(115) @ 115: uvm_test_top.env.scb [SCB] WRITE WSTRB PASS: Exp_WSTRB=3 Actual_WSTRB=3
UVM_INFO axi_scoreboard.sv(120) @ 115: uvm_test_top.env.scb [SCB] WRITE BRESP PASS: Exp_BRESP=11 Actual_BRESP=11
UVM_INFO axi_driver.sv(111) @ 155: uvm_test_top.env.inp_agt.inp_drv [AXI_AW] AWADDR=5d0bcb95 AWPROT=0 AWVALID=1 AWREADY=1
UVM_INFO axi_inp_monitor.sv(64) @ 165: uvm_test_top.env.inp_agt.inp_mon [AXI_AW] AWADDR=5d0bcb95 AWPROT=0 AWVALID=1 AWREADY=1
UVM_INFO axi_op_monitor.sv(64) @ 165: uvm_test_top.env.op_agt.op_mon [OP_AW] AWVALID=1 AWREADY=1 AWADDR=5d0bcb95 AWPROT=0
UVM_INFO axi_driver.sv(129) @ 185: uvm_test_top.env.inp_agt.inp_drv [AXI_W] WDATA=a1f02013 WSTRB=4 WVALID=1 WREADY=1
UVM_INFO axi_inp_monitor.sv(73) @ 195: uvm_test_top.env.inp_agt.inp_mon [AXI_W] WDATA=a1f02013 WSTRB=4 WVALID=1 WREADY=1
UVM_INFO axi_op_monitor.sv(73) @ 195: uvm_test_top.env.op_agt.op_mon [OP_W] WVALID=1 WREADY=1 WDATA=a1f02013 WSTRB=4
reg_file[0] = 00000000
reg_file[1] = 00000000
reg_file[2] = 00000000
reg_file[3] = 00000000
reg_file[4] = 00000000
reg_file[5] = 00000000
reg_file[6] = 00000000
reg_file[7] = 00000000
reg_file[8] = 00000000
reg_file[9] = 00000000
reg_file[10] = 00000000
reg_file[11] = 00000000
reg_file[12] = 00000000
reg_file[13] = 00000000
reg_file[14] = 00000000
reg_file[15] = 00000000
UVM_INFO axi_driver.sv(145) @ 215: uvm_test_top.env.inp_agt.inp_drv [AXI_B] BREADY=1 BVALID=1 BRESP=11
UVM_INFO axi_inp_monitor.sv(81) @ 225: uvm_test_top.env.inp_agt.inp_mon [AXI_B] BREADY=1 BRESP=11 BVALID=1
UVM_INFO axi_subscriber.sv(158) @ 225: uvm_test_top.env.sub [sub] [DRIVER]:INPUT RECIEVED
UVM_INFO axi_op_monitor.sv(81) @ 225: uvm_test_top.env.op_agt.op_mon [OP_B] BVALID=1 BREADY=1 BRESP=11
UVM_INFO axi_scoreboard.sv(42) @ 225: uvm_test_top.env.scb [SCB] 4
UVM_INFO axi_scoreboard.sv(105) @ 225: uvm_test_top.env.scb [SCB] WRITE ADDRESS PASS: Exp_AWADDR=5d0bcb95 Actual_AWADDR=5d0bcb95
UVM_INFO axi_scoreboard.sv(110) @ 225: uvm_test_top.env.scb [SCB] WRITE DATA PASS: Exp_WDATA=a1f02013 Actual_WDATA=a1f02013
UVM_INFO axi_scoreboard.sv(115) @ 225: uvm_test_top.env.scb [SCB] WRITE WSTRB PASS: Exp_WSTRB=4 Actual_WSTRB=4
UVM_INFO axi_scoreboard.sv(120) @ 225: uvm_test_top.env.scb [SCB] WRITE BRESP PASS: Exp_BRESP=11 Actual_BRESP=11
UVM_INFO axi_driver.sv(111) @ 245: uvm_test_top.env.inp_agt.inp_drv [AXI_AW] AWADDR=6bf9e96d AWPROT=0 AWVALID=1 AWREADY=1
UVM_INFO axi_inp_monitor.sv(64) @ 255: uvm_test_top.env.inp_agt.inp_mon [AXI_AW] AWADDR=6bf9e96d AWPROT=0 AWVALID=1 AWREADY=1
UVM_INFO axi_op_monitor.sv(64) @ 255: uvm_test_top.env.op_agt.op_mon [OP_AW] AWVALID=1 AWREADY=1 AWADDR=6bf9e96d AWPROT=0
UVM_INFO axi_driver.sv(129) @ 275: uvm_test_top.env.inp_agt.inp_drv [AXI_W] WDATA=c0a3329b WSTRB=8 WVALID=1 WREADY=1
UVM_INFO axi_inp_monitor.sv(73) @ 285: uvm_test_top.env.inp_agt.inp_mon [AXI_W] WDATA=c0a3329b WSTRB=8 WVALID=1 WREADY=1
UVM_INFO axi_op_monitor.sv(73) @ 285: uvm_test_top.env.op_agt.op_mon [OP_W] WVALID=1 WREADY=1 WDATA=c0a3329b WSTRB=8
reg_file[0] = 00000000
reg_file[1] = 00000000
reg_file[2] = 00000000
reg_file[3] = 00000000
reg_file[4] = 00000000
reg_file[5] = 00000000
reg_file[6] = 00000000
reg_file[7] = 00000000
reg_file[8] = 00000000
reg_file[9] = 00000000
reg_file[10] = 00000000
reg_file[11] = 00000000
reg_file[12] = 00000000
reg_file[13] = 00000000
reg_file[14] = 00000000
reg_file[15] = 00000000
UVM_INFO axi_driver.sv(145) @ 305: uvm_test_top.env.inp_agt.inp_drv [AXI_B] BREADY=1 BVALID=1 BRESP=11
UVM_INFO axi_inp_monitor.sv(81) @ 315: uvm_test_top.env.inp_agt.inp_mon [AXI_B] BREADY=1 BRESP=11 BVALID=1
UVM_INFO axi_subscriber.sv(158) @ 315: uvm_test_top.env.sub [sub] [DRIVER]:INPUT RECIEVED
UVM_INFO axi_op_monitor.sv(81) @ 315: uvm_test_top.env.op_agt.op_mon [OP_B] BVALID=1 BREADY=1 BRESP=11
UVM_INFO axi_scoreboard.sv(42) @ 315: uvm_test_top.env.scb [SCB] 8
UVM_INFO axi_scoreboard.sv(105) @ 315: uvm_test_top.env.scb [SCB] WRITE ADDRESS PASS: Exp_AWADDR=6bf9e96d Actual_AWADDR=6bf9e96d
UVM_INFO axi_scoreboard.sv(110) @ 315: uvm_test_top.env.scb [SCB] WRITE DATA PASS: Exp_WDATA=c0a3329b Actual_WDATA=c0a3329b
UVM_INFO axi_scoreboard.sv(115) @ 315: uvm_test_top.env.scb [SCB] WRITE WSTRB PASS: Exp_WSTRB=8 Actual_WSTRB=8
UVM_INFO axi_scoreboard.sv(120) @ 315: uvm_test_top.env.scb [SCB] WRITE BRESP PASS: Exp_BRESP=11 Actual_BRESP=11
UVM_INFO axi_driver.sv(111) @ 335: uvm_test_top.env.inp_agt.inp_drv [AXI_AW] AWADDR=3f0b237 AWPROT=0 AWVALID=1 AWREADY=1
UVM_INFO axi_inp_monitor.sv(64) @ 345: uvm_test_top.env.inp_agt.inp_mon [AXI_AW] AWADDR=3f0b237 AWPROT=0 AWVALID=1 AWREADY=1
UVM_INFO axi_op_monitor.sv(64) @ 345: uvm_test_top.env.op_agt.op_mon [OP_AW] AWVALID=1 AWREADY=1 AWADDR=3f0b237 AWPROT=0
UVM_INFO axi_driver.sv(129) @ 365: uvm_test_top.env.inp_agt.inp_drv [AXI_W] WDATA=9dd6acf4 WSTRB=e WVALID=1 WREADY=1
UVM_INFO axi_inp_monitor.sv(73) @ 375: uvm_test_top.env.inp_agt.inp_mon [AXI_W] WDATA=9dd6acf4 WSTRB=e WVALID=1 WREADY=1
UVM_INFO axi_op_monitor.sv(73) @ 375: uvm_test_top.env.op_agt.op_mon [OP_W] WVALID=1 WREADY=1 WDATA=9dd6acf4 WSTRB=e
reg_file[0] = 00000000
reg_file[1] = 00000000
reg_file[2] = 00000000
reg_file[3] = 00000000
reg_file[4] = 00000000
reg_file[5] = 00000000
reg_file[6] = 00000000
reg_file[7] = 00000000
reg_file[8] = 00000000
reg_file[9] = 00000000
reg_file[10] = 00000000
reg_file[11] = 00000000
reg_file[12] = 00000000
reg_file[13] = 00000000
reg_file[14] = 00000000
reg_file[15] = 00000000
UVM_INFO axi_driver.sv(145) @ 395: uvm_test_top.env.inp_agt.inp_drv [AXI_B] BREADY=1 BVALID=1 BRESP=11
UVM_INFO axi_inp_monitor.sv(81) @ 405: uvm_test_top.env.inp_agt.inp_mon [AXI_B] BREADY=1 BRESP=11 BVALID=1
UVM_INFO axi_subscriber.sv(158) @ 405: uvm_test_top.env.sub [sub] [DRIVER]:INPUT RECIEVED
UVM_INFO axi_op_monitor.sv(81) @ 405: uvm_test_top.env.op_agt.op_mon [OP_B] BVALID=1 BREADY=1 BRESP=11
UVM_INFO axi_scoreboard.sv(42) @ 405: uvm_test_top.env.scb [SCB] e
UVM_INFO axi_scoreboard.sv(105) @ 405: uvm_test_top.env.scb [SCB] WRITE ADDRESS PASS: Exp_AWADDR=3f0b237 Actual_AWADDR=3f0b237
UVM_INFO axi_scoreboard.sv(110) @ 405: uvm_test_top.env.scb [SCB] WRITE DATA PASS: Exp_WDATA=9dd6acf4 Actual_WDATA=9dd6acf4
UVM_INFO axi_scoreboard.sv(115) @ 405: uvm_test_top.env.scb [SCB] WRITE WSTRB PASS: Exp_WSTRB=e Actual_WSTRB=e
UVM_INFO axi_scoreboard.sv(120) @ 405: uvm_test_top.env.scb [SCB] WRITE BRESP PASS: Exp_BRESP=11 Actual_BRESP=11
UVM_INFO axi_driver.sv(111) @ 425: uvm_test_top.env.inp_agt.inp_drv [AXI_AW] AWADDR=56831f38 AWPROT=0 AWVALID=1 AWREADY=1
UVM_INFO axi_inp_monitor.sv(64) @ 435: uvm_test_top.env.inp_agt.inp_mon [AXI_AW] AWADDR=56831f38 AWPROT=0 AWVALID=1 AWREADY=1
UVM_INFO axi_op_monitor.sv(64) @ 435: uvm_test_top.env.op_agt.op_mon [OP_AW] AWVALID=1 AWREADY=1 AWADDR=56831f38 AWPROT=0
UVM_INFO axi_driver.sv(129) @ 455: uvm_test_top.env.inp_agt.inp_drv [AXI_W] WDATA=bb151cb1 WSTRB=4 WVALID=1 WREADY=1
UVM_INFO axi_inp_monitor.sv(73) @ 465: uvm_test_top.env.inp_agt.inp_mon [AXI_W] WDATA=bb151cb1 WSTRB=4 WVALID=1 WREADY=1
UVM_INFO axi_op_monitor.sv(73) @ 465: uvm_test_top.env.op_agt.op_mon [OP_W] WVALID=1 WREADY=1 WDATA=bb151cb1 WSTRB=4
reg_file[0] = 00000000
reg_file[1] = 00000000
reg_file[2] = 00000000
reg_file[3] = 00000000
reg_file[4] = 00000000
reg_file[5] = 00000000
reg_file[6] = 00000000
reg_file[7] = 00000000
reg_file[8] = 00000000
reg_file[9] = 00000000
reg_file[10] = 00000000
reg_file[11] = 00000000
reg_file[12] = 00000000
reg_file[13] = 00000000
reg_file[14] = 00000000
reg_file[15] = 00000000
UVM_INFO axi_driver.sv(145) @ 485: uvm_test_top.env.inp_agt.inp_drv [AXI_B] BREADY=1 BVALID=1 BRESP=11
UVM_INFO axi_inp_monitor.sv(81) @ 495: uvm_test_top.env.inp_agt.inp_mon [AXI_B] BREADY=1 BRESP=11 BVALID=1
UVM_INFO axi_subscriber.sv(158) @ 495: uvm_test_top.env.sub [sub] [DRIVER]:INPUT RECIEVED
UVM_INFO axi_op_monitor.sv(81) @ 495: uvm_test_top.env.op_agt.op_mon [OP_B] BVALID=1 BREADY=1 BRESP=11
UVM_INFO axi_scoreboard.sv(42) @ 495: uvm_test_top.env.scb [SCB] 4
UVM_INFO axi_scoreboard.sv(105) @ 495: uvm_test_top.env.scb [SCB] WRITE ADDRESS PASS: Exp_AWADDR=56831f38 Actual_AWADDR=56831f38
UVM_INFO axi_scoreboard.sv(110) @ 495: uvm_test_top.env.scb [SCB] WRITE DATA PASS: Exp_WDATA=bb151cb1 Actual_WDATA=bb151cb1
UVM_INFO axi_scoreboard.sv(115) @ 495: uvm_test_top.env.scb [SCB] WRITE WSTRB PASS: Exp_WSTRB=4 Actual_WSTRB=4
UVM_INFO axi_scoreboard.sv(120) @ 495: uvm_test_top.env.scb [SCB] WRITE BRESP PASS: Exp_BRESP=11 Actual_BRESP=11
UVM_INFO axi_driver.sv(111) @ 515: uvm_test_top.env.inp_agt.inp_drv [AXI_AW] AWADDR=bea66623 AWPROT=0 AWVALID=1 AWREADY=1
UVM_INFO axi_inp_monitor.sv(64) @ 525: uvm_test_top.env.inp_agt.inp_mon [AXI_AW] AWADDR=bea66623 AWPROT=0 AWVALID=1 AWREADY=1
UVM_INFO axi_op_monitor.sv(64) @ 525: uvm_test_top.env.op_agt.op_mon [OP_AW] AWVALID=1 AWREADY=1 AWADDR=bea66623 AWPROT=0
UVM_INFO axi_driver.sv(129) @ 545: uvm_test_top.env.inp_agt.inp_drv [AXI_W] WDATA=c9cc2c9b WSTRB=0 WVALID=1 WREADY=1
UVM_INFO axi_inp_monitor.sv(73) @ 555: uvm_test_top.env.inp_agt.inp_mon [AXI_W] WDATA=c9cc2c9b WSTRB=0 WVALID=1 WREADY=1
UVM_INFO axi_op_monitor.sv(73) @ 555: uvm_test_top.env.op_agt.op_mon [OP_W] WVALID=1 WREADY=1 WDATA=c9cc2c9b WSTRB=0
reg_file[0] = 00000000
reg_file[1] = 00000000
reg_file[2] = 00000000
reg_file[3] = 00000000
reg_file[4] = 00000000
reg_file[5] = 00000000
reg_file[6] = 00000000
reg_file[7] = 00000000
reg_file[8] = 00000000
reg_file[9] = 00000000
reg_file[10] = 00000000
reg_file[11] = 00000000
reg_file[12] = 00000000
reg_file[13] = 00000000
reg_file[14] = 00000000
reg_file[15] = 00000000
UVM_INFO axi_driver.sv(145) @ 575: uvm_test_top.env.inp_agt.inp_drv [AXI_B] BREADY=1 BVALID=1 BRESP=11
UVM_INFO axi_inp_monitor.sv(81) @ 585: uvm_test_top.env.inp_agt.inp_mon [AXI_B] BREADY=1 BRESP=11 BVALID=1
UVM_INFO axi_subscriber.sv(158) @ 585: uvm_test_top.env.sub [sub] [DRIVER]:INPUT RECIEVED
UVM_INFO axi_op_monitor.sv(81) @ 585: uvm_test_top.env.op_agt.op_mon [OP_B] BVALID=1 BREADY=1 BRESP=11
UVM_INFO axi_scoreboard.sv(42) @ 585: uvm_test_top.env.scb [SCB] 0
UVM_INFO axi_scoreboard.sv(105) @ 585: uvm_test_top.env.scb [SCB] WRITE ADDRESS PASS: Exp_AWADDR=bea66623 Actual_AWADDR=bea66623
UVM_INFO axi_scoreboard.sv(110) @ 585: uvm_test_top.env.scb [SCB] WRITE DATA PASS: Exp_WDATA=c9cc2c9b Actual_WDATA=c9cc2c9b
UVM_INFO axi_scoreboard.sv(115) @ 585: uvm_test_top.env.scb [SCB] WRITE WSTRB PASS: Exp_WSTRB=0 Actual_WSTRB=0
UVM_INFO axi_scoreboard.sv(120) @ 585: uvm_test_top.env.scb [SCB] WRITE BRESP PASS: Exp_BRESP=11 Actual_BRESP=11
UVM_INFO axi_driver.sv(111) @ 605: uvm_test_top.env.inp_agt.inp_drv [AXI_AW] AWADDR=b2afb130 AWPROT=0 AWVALID=1 AWREADY=1
UVM_INFO axi_inp_monitor.sv(64) @ 615: uvm_test_top.env.inp_agt.inp_mon [AXI_AW] AWADDR=b2afb130 AWPROT=0 AWVALID=1 AWREADY=1
UVM_INFO axi_op_monitor.sv(64) @ 615: uvm_test_top.env.op_agt.op_mon [OP_AW] AWVALID=1 AWREADY=1 AWADDR=b2afb130 AWPROT=0
UVM_INFO axi_driver.sv(129) @ 635: uvm_test_top.env.inp_agt.inp_drv [AXI_W] WDATA=2efeb0e9 WSTRB=0 WVALID=1 WREADY=1
UVM_INFO axi_inp_monitor.sv(73) @ 645: uvm_test_top.env.inp_agt.inp_mon [AXI_W] WDATA=2efeb0e9 WSTRB=0 WVALID=1 WREADY=1
UVM_INFO axi_op_monitor.sv(73) @ 645: uvm_test_top.env.op_agt.op_mon [OP_W] WVALID=1 WREADY=1 WDATA=2efeb0e9 WSTRB=0
reg_file[0] = 00000000
reg_file[1] = 00000000
reg_file[2] = 00000000
reg_file[3] = 00000000
reg_file[4] = 00000000
reg_file[5] = 00000000
reg_file[6] = 00000000
reg_file[7] = 00000000
reg_file[8] = 00000000
reg_file[9] = 00000000
reg_file[10] = 00000000
reg_file[11] = 00000000
reg_file[12] = 00000000
reg_file[13] = 00000000
reg_file[14] = 00000000
reg_file[15] = 00000000
UVM_INFO axi_driver.sv(145) @ 665: uvm_test_top.env.inp_agt.inp_drv [AXI_B] BREADY=1 BVALID=1 BRESP=11
UVM_INFO axi_inp_monitor.sv(81) @ 675: uvm_test_top.env.inp_agt.inp_mon [AXI_B] BREADY=1 BRESP=11 BVALID=1
UVM_INFO axi_subscriber.sv(158) @ 675: uvm_test_top.env.sub [sub] [DRIVER]:INPUT RECIEVED
UVM_INFO axi_op_monitor.sv(81) @ 675: uvm_test_top.env.op_agt.op_mon [OP_B] BVALID=1 BREADY=1 BRESP=11
UVM_INFO axi_scoreboard.sv(42) @ 675: uvm_test_top.env.scb [SCB] 0
UVM_INFO axi_scoreboard.sv(105) @ 675: uvm_test_top.env.scb [SCB] WRITE ADDRESS PASS: Exp_AWADDR=b2afb130 Actual_AWADDR=b2afb130
UVM_INFO axi_scoreboard.sv(110) @ 675: uvm_test_top.env.scb [SCB] WRITE DATA PASS: Exp_WDATA=2efeb0e9 Actual_WDATA=2efeb0e9
UVM_INFO axi_scoreboard.sv(115) @ 675: uvm_test_top.env.scb [SCB] WRITE WSTRB PASS: Exp_WSTRB=0 Actual_WSTRB=0
UVM_INFO axi_scoreboard.sv(120) @ 675: uvm_test_top.env.scb [SCB] WRITE BRESP PASS: Exp_BRESP=11 Actual_BRESP=11
UVM_INFO axi_driver.sv(111) @ 695: uvm_test_top.env.inp_agt.inp_drv [AXI_AW] AWADDR=f8dd8dab AWPROT=0 AWVALID=1 AWREADY=1
UVM_INFO axi_inp_monitor.sv(64) @ 705: uvm_test_top.env.inp_agt.inp_mon [AXI_AW] AWADDR=f8dd8dab AWPROT=0 AWVALID=1 AWREADY=1
UVM_INFO axi_op_monitor.sv(64) @ 705: uvm_test_top.env.op_agt.op_mon [OP_AW] AWVALID=1 AWREADY=1 AWADDR=f8dd8dab AWPROT=0
UVM_INFO axi_driver.sv(129) @ 725: uvm_test_top.env.inp_agt.inp_drv [AXI_W] WDATA=5d5196cc WSTRB=b WVALID=1 WREADY=1
UVM_INFO axi_inp_monitor.sv(73) @ 735: uvm_test_top.env.inp_agt.inp_mon [AXI_W] WDATA=5d5196cc WSTRB=b WVALID=1 WREADY=1
UVM_INFO axi_op_monitor.sv(73) @ 735: uvm_test_top.env.op_agt.op_mon [OP_W] WVALID=1 WREADY=1 WDATA=5d5196cc WSTRB=b
reg_file[0] = 00000000
reg_file[1] = 00000000
reg_file[2] = 00000000
reg_file[3] = 00000000
reg_file[4] = 00000000
reg_file[5] = 00000000
reg_file[6] = 00000000
reg_file[7] = 00000000
reg_file[8] = 00000000
reg_file[9] = 00000000
reg_file[10] = 00000000
reg_file[11] = 00000000
reg_file[12] = 00000000
reg_file[13] = 00000000
reg_file[14] = 00000000
reg_file[15] = 00000000
UVM_INFO axi_driver.sv(145) @ 755: uvm_test_top.env.inp_agt.inp_drv [AXI_B] BREADY=1 BVALID=1 BRESP=11
UVM_INFO axi_inp_monitor.sv(81) @ 765: uvm_test_top.env.inp_agt.inp_mon [AXI_B] BREADY=1 BRESP=11 BVALID=1
UVM_INFO axi_subscriber.sv(158) @ 765: uvm_test_top.env.sub [sub] [DRIVER]:INPUT RECIEVED
UVM_INFO axi_op_monitor.sv(81) @ 765: uvm_test_top.env.op_agt.op_mon [OP_B] BVALID=1 BREADY=1 BRESP=11
UVM_INFO axi_scoreboard.sv(42) @ 765: uvm_test_top.env.scb [SCB] b
UVM_INFO axi_scoreboard.sv(105) @ 765: uvm_test_top.env.scb [SCB] WRITE ADDRESS PASS: Exp_AWADDR=f8dd8dab Actual_AWADDR=f8dd8dab
UVM_INFO axi_scoreboard.sv(110) @ 765: uvm_test_top.env.scb [SCB] WRITE DATA PASS: Exp_WDATA=5d5196cc Actual_WDATA=5d5196cc
UVM_INFO axi_scoreboard.sv(115) @ 765: uvm_test_top.env.scb [SCB] WRITE WSTRB PASS: Exp_WSTRB=b Actual_WSTRB=b
UVM_INFO axi_scoreboard.sv(120) @ 765: uvm_test_top.env.scb [SCB] WRITE BRESP PASS: Exp_BRESP=11 Actual_BRESP=11
UVM_INFO axi_driver.sv(111) @ 785: uvm_test_top.env.inp_agt.inp_drv [AXI_AW] AWADDR=2bd5b62 AWPROT=0 AWVALID=1 AWREADY=1
UVM_INFO axi_inp_monitor.sv(64) @ 795: uvm_test_top.env.inp_agt.inp_mon [AXI_AW] AWADDR=2bd5b62 AWPROT=0 AWVALID=1 AWREADY=1
UVM_INFO axi_op_monitor.sv(64) @ 795: uvm_test_top.env.op_agt.op_mon [OP_AW] AWVALID=1 AWREADY=1 AWADDR=2bd5b62 AWPROT=0
UVM_INFO axi_driver.sv(129) @ 815: uvm_test_top.env.inp_agt.inp_drv [AXI_W] WDATA=d5fc092e WSTRB=2 WVALID=1 WREADY=1
UVM_INFO axi_inp_monitor.sv(73) @ 825: uvm_test_top.env.inp_agt.inp_mon [AXI_W] WDATA=d5fc092e WSTRB=2 WVALID=1 WREADY=1
UVM_INFO axi_op_monitor.sv(73) @ 825: uvm_test_top.env.op_agt.op_mon [OP_W] WVALID=1 WREADY=1 WDATA=d5fc092e WSTRB=2
reg_file[0] = 00000000
reg_file[1] = 00000000
reg_file[2] = 00000000
reg_file[3] = 00000000
reg_file[4] = 00000000
reg_file[5] = 00000000
reg_file[6] = 00000000
reg_file[7] = 00000000
reg_file[8] = 00000000
reg_file[9] = 00000000
reg_file[10] = 00000000
reg_file[11] = 00000000
reg_file[12] = 00000000
reg_file[13] = 00000000
reg_file[14] = 00000000
reg_file[15] = 00000000
UVM_INFO axi_driver.sv(145) @ 845: uvm_test_top.env.inp_agt.inp_drv [AXI_B] BREADY=1 BVALID=1 BRESP=11
UVM_INFO axi_inp_monitor.sv(81) @ 855: uvm_test_top.env.inp_agt.inp_mon [AXI_B] BREADY=1 BRESP=11 BVALID=1
UVM_INFO axi_subscriber.sv(158) @ 855: uvm_test_top.env.sub [sub] [DRIVER]:INPUT RECIEVED
UVM_INFO axi_op_monitor.sv(81) @ 855: uvm_test_top.env.op_agt.op_mon [OP_B] BVALID=1 BREADY=1 BRESP=11
UVM_INFO axi_scoreboard.sv(42) @ 855: uvm_test_top.env.scb [SCB] 2
UVM_INFO axi_scoreboard.sv(105) @ 855: uvm_test_top.env.scb [SCB] WRITE ADDRESS PASS: Exp_AWADDR=2bd5b62 Actual_AWADDR=2bd5b62
UVM_INFO axi_scoreboard.sv(110) @ 855: uvm_test_top.env.scb [SCB] WRITE DATA PASS: Exp_WDATA=d5fc092e Actual_WDATA=d5fc092e
UVM_INFO axi_scoreboard.sv(115) @ 855: uvm_test_top.env.scb [SCB] WRITE WSTRB PASS: Exp_WSTRB=2 Actual_WSTRB=2
UVM_INFO axi_scoreboard.sv(120) @ 855: uvm_test_top.env.scb [SCB] WRITE BRESP PASS: Exp_BRESP=11 Actual_BRESP=11
UVM_INFO axi_driver.sv(111) @ 875: uvm_test_top.env.inp_agt.inp_drv [AXI_AW] AWADDR=69acc2ba AWPROT=0 AWVALID=1 AWREADY=1
UVM_INFO axi_inp_monitor.sv(64) @ 885: uvm_test_top.env.inp_agt.inp_mon [AXI_AW] AWADDR=69acc2ba AWPROT=0 AWVALID=1 AWREADY=1
UVM_INFO axi_op_monitor.sv(64) @ 885: uvm_test_top.env.op_agt.op_mon [OP_AW] AWVALID=1 AWREADY=1 AWADDR=69acc2ba AWPROT=0
UVM_INFO axi_driver.sv(129) @ 905: uvm_test_top.env.inp_agt.inp_drv [AXI_W] WDATA=2546b6e8 WSTRB=3 WVALID=1 WREADY=1
UVM_INFO axi_inp_monitor.sv(73) @ 915: uvm_test_top.env.inp_agt.inp_mon [AXI_W] WDATA=2546b6e8 WSTRB=3 WVALID=1 WREADY=1
UVM_INFO axi_op_monitor.sv(73) @ 915: uvm_test_top.env.op_agt.op_mon [OP_W] WVALID=1 WREADY=1 WDATA=2546b6e8 WSTRB=3
reg_file[0] = 00000000
reg_file[1] = 00000000
reg_file[2] = 00000000
reg_file[3] = 00000000
reg_file[4] = 00000000
reg_file[5] = 00000000
reg_file[6] = 00000000
reg_file[7] = 00000000
reg_file[8] = 00000000
reg_file[9] = 00000000
reg_file[10] = 00000000
reg_file[11] = 00000000
reg_file[12] = 00000000
reg_file[13] = 00000000
reg_file[14] = 00000000
reg_file[15] = 00000000
UVM_INFO axi_driver.sv(145) @ 935: uvm_test_top.env.inp_agt.inp_drv [AXI_B] BREADY=1 BVALID=1 BRESP=11
UVM_INFO axi_inp_monitor.sv(81) @ 945: uvm_test_top.env.inp_agt.inp_mon [AXI_B] BREADY=1 BRESP=11 BVALID=1
UVM_INFO axi_subscriber.sv(158) @ 945: uvm_test_top.env.sub [sub] [DRIVER]:INPUT RECIEVED
UVM_INFO axi_op_monitor.sv(81) @ 945: uvm_test_top.env.op_agt.op_mon [OP_B] BVALID=1 BREADY=1 BRESP=11
UVM_INFO axi_scoreboard.sv(42) @ 945: uvm_test_top.env.scb [SCB] 3
UVM_INFO axi_scoreboard.sv(105) @ 945: uvm_test_top.env.scb [SCB] WRITE ADDRESS PASS: Exp_AWADDR=69acc2ba Actual_AWADDR=69acc2ba
UVM_INFO axi_scoreboard.sv(110) @ 945: uvm_test_top.env.scb [SCB] WRITE DATA PASS: Exp_WDATA=2546b6e8 Actual_WDATA=2546b6e8
UVM_INFO axi_scoreboard.sv(115) @ 945: uvm_test_top.env.scb [SCB] WRITE WSTRB PASS: Exp_WSTRB=3 Actual_WSTRB=3
UVM_INFO axi_scoreboard.sv(120) @ 945: uvm_test_top.env.scb [SCB] WRITE BRESP PASS: Exp_BRESP=11 Actual_BRESP=11
UVM_INFO axi_driver.sv(111) @ 965: uvm_test_top.env.inp_agt.inp_drv [AXI_AW] AWADDR=7446fdc2 AWPROT=0 AWVALID=1 AWREADY=1
UVM_INFO axi_inp_monitor.sv(64) @ 975: uvm_test_top.env.inp_agt.inp_mon [AXI_AW] AWADDR=7446fdc2 AWPROT=0 AWVALID=1 AWREADY=1
UVM_INFO axi_op_monitor.sv(64) @ 975: uvm_test_top.env.op_agt.op_mon [OP_AW] AWVALID=1 AWREADY=1 AWADDR=7446fdc2 AWPROT=0
UVM_INFO axi_driver.sv(129) @ 995: uvm_test_top.env.inp_agt.inp_drv [AXI_W] WDATA=53bc4104 WSTRB=0 WVALID=1 WREADY=1
UVM_INFO axi_inp_monitor.sv(73) @ 1005: uvm_test_top.env.inp_agt.inp_mon [AXI_W] WDATA=53bc4104 WSTRB=0 WVALID=1 WREADY=1
UVM_INFO axi_op_monitor.sv(73) @ 1005: uvm_test_top.env.op_agt.op_mon [OP_W] WVALID=1 WREADY=1 WDATA=53bc4104 WSTRB=0
reg_file[0] = 00000000
reg_file[1] = 00000000
reg_file[2] = 00000000
reg_file[3] = 00000000
reg_file[4] = 00000000
reg_file[5] = 00000000
reg_file[6] = 00000000
reg_file[7] = 00000000
reg_file[8] = 00000000
reg_file[9] = 00000000
reg_file[10] = 00000000
reg_file[11] = 00000000
reg_file[12] = 00000000
reg_file[13] = 00000000
reg_file[14] = 00000000
reg_file[15] = 00000000
UVM_INFO axi_driver.sv(145) @ 1025: uvm_test_top.env.inp_agt.inp_drv [AXI_B] BREADY=1 BVALID=1 BRESP=11
UVM_INFO axi_inp_monitor.sv(81) @ 1035: uvm_test_top.env.inp_agt.inp_mon [AXI_B] BREADY=1 BRESP=11 BVALID=1
UVM_INFO axi_subscriber.sv(158) @ 1035: uvm_test_top.env.sub [sub] [DRIVER]:INPUT RECIEVED
UVM_INFO axi_op_monitor.sv(81) @ 1035: uvm_test_top.env.op_agt.op_mon [OP_B] BVALID=1 BREADY=1 BRESP=11
UVM_INFO axi_scoreboard.sv(42) @ 1035: uvm_test_top.env.scb [SCB] 0
UVM_INFO axi_scoreboard.sv(105) @ 1035: uvm_test_top.env.scb [SCB] WRITE ADDRESS PASS: Exp_AWADDR=7446fdc2 Actual_AWADDR=7446fdc2
UVM_INFO axi_scoreboard.sv(110) @ 1035: uvm_test_top.env.scb [SCB] WRITE DATA PASS: Exp_WDATA=53bc4104 Actual_WDATA=53bc4104
UVM_INFO axi_scoreboard.sv(115) @ 1035: uvm_test_top.env.scb [SCB] WRITE WSTRB PASS: Exp_WSTRB=0 Actual_WSTRB=0
UVM_INFO axi_scoreboard.sv(120) @ 1035: uvm_test_top.env.scb [SCB] WRITE BRESP PASS: Exp_BRESP=11 Actual_BRESP=11
UVM_INFO axi_driver.sv(111) @ 1055: uvm_test_top.env.inp_agt.inp_drv [AXI_AW] AWADDR=6650db10 AWPROT=0 AWVALID=1 AWREADY=1
UVM_INFO axi_inp_monitor.sv(64) @ 1065: uvm_test_top.env.inp_agt.inp_mon [AXI_AW] AWADDR=6650db10 AWPROT=0 AWVALID=1 AWREADY=1
UVM_INFO axi_op_monitor.sv(64) @ 1065: uvm_test_top.env.op_agt.op_mon [OP_AW] AWVALID=1 AWREADY=1 AWADDR=6650db10 AWPROT=0
UVM_INFO axi_driver.sv(129) @ 1085: uvm_test_top.env.inp_agt.inp_drv [AXI_W] WDATA=f5e67f86 WSTRB=e WVALID=1 WREADY=1
UVM_INFO axi_inp_monitor.sv(73) @ 1095: uvm_test_top.env.inp_agt.inp_mon [AXI_W] WDATA=f5e67f86 WSTRB=e WVALID=1 WREADY=1
UVM_INFO axi_op_monitor.sv(73) @ 1095: uvm_test_top.env.op_agt.op_mon [OP_W] WVALID=1 WREADY=1 WDATA=f5e67f86 WSTRB=e
reg_file[0] = 00000000
reg_file[1] = 00000000
reg_file[2] = 00000000
reg_file[3] = 00000000
reg_file[4] = 00000000
reg_file[5] = 00000000
reg_file[6] = 00000000
reg_file[7] = 00000000
reg_file[8] = 00000000
reg_file[9] = 00000000
reg_file[10] = 00000000
reg_file[11] = 00000000
reg_file[12] = 00000000
reg_file[13] = 00000000
reg_file[14] = 00000000
reg_file[15] = 00000000
UVM_INFO axi_driver.sv(145) @ 1115: uvm_test_top.env.inp_agt.inp_drv [AXI_B] BREADY=1 BVALID=1 BRESP=11
UVM_INFO axi_inp_monitor.sv(81) @ 1125: uvm_test_top.env.inp_agt.inp_mon [AXI_B] BREADY=1 BRESP=11 BVALID=1
UVM_INFO axi_subscriber.sv(158) @ 1125: uvm_test_top.env.sub [sub] [DRIVER]:INPUT RECIEVED
UVM_INFO axi_op_monitor.sv(81) @ 1125: uvm_test_top.env.op_agt.op_mon [OP_B] BVALID=1 BREADY=1 BRESP=11
UVM_INFO axi_scoreboard.sv(42) @ 1125: uvm_test_top.env.scb [SCB] e
UVM_INFO axi_scoreboard.sv(105) @ 1125: uvm_test_top.env.scb [SCB] WRITE ADDRESS PASS: Exp_AWADDR=6650db10 Actual_AWADDR=6650db10
UVM_INFO axi_scoreboard.sv(110) @ 1125: uvm_test_top.env.scb [SCB] WRITE DATA PASS: Exp_WDATA=f5e67f86 Actual_WDATA=f5e67f86
UVM_INFO axi_scoreboard.sv(115) @ 1125: uvm_test_top.env.scb [SCB] WRITE WSTRB PASS: Exp_WSTRB=e Actual_WSTRB=e
UVM_INFO axi_scoreboard.sv(120) @ 1125: uvm_test_top.env.scb [SCB] WRITE BRESP PASS: Exp_BRESP=11 Actual_BRESP=11
UVM_INFO axi_driver.sv(111) @ 1145: uvm_test_top.env.inp_agt.inp_drv [AXI_AW] AWADDR=746ca244 AWPROT=0 AWVALID=1 AWREADY=1
UVM_INFO axi_inp_monitor.sv(64) @ 1155: uvm_test_top.env.inp_agt.inp_mon [AXI_AW] AWADDR=746ca244 AWPROT=0 AWVALID=1 AWREADY=1
UVM_INFO axi_op_monitor.sv(64) @ 1155: uvm_test_top.env.op_agt.op_mon [OP_AW] AWVALID=1 AWREADY=1 AWADDR=746ca244 AWPROT=0
UVM_INFO axi_driver.sv(129) @ 1175: uvm_test_top.env.inp_agt.inp_drv [AXI_W] WDATA=946a4346 WSTRB=2 WVALID=1 WREADY=1
UVM_INFO axi_inp_monitor.sv(73) @ 1185: uvm_test_top.env.inp_agt.inp_mon [AXI_W] WDATA=946a4346 WSTRB=2 WVALID=1 WREADY=1
UVM_INFO axi_op_monitor.sv(73) @ 1185: uvm_test_top.env.op_agt.op_mon [OP_W] WVALID=1 WREADY=1 WDATA=946a4346 WSTRB=2
reg_file[0] = 00000000
reg_file[1] = 00000000
reg_file[2] = 00000000
reg_file[3] = 00000000
reg_file[4] = 00000000
reg_file[5] = 00000000
reg_file[6] = 00000000
reg_file[7] = 00000000
reg_file[8] = 00000000
reg_file[9] = 00000000
reg_file[10] = 00000000
reg_file[11] = 00000000
reg_file[12] = 00000000
reg_file[13] = 00000000
reg_file[14] = 00000000
reg_file[15] = 00000000
UVM_INFO axi_driver.sv(145) @ 1205: uvm_test_top.env.inp_agt.inp_drv [AXI_B] BREADY=1 BVALID=1 BRESP=11
UVM_INFO axi_inp_monitor.sv(81) @ 1215: uvm_test_top.env.inp_agt.inp_mon [AXI_B] BREADY=1 BRESP=11 BVALID=1
UVM_INFO axi_subscriber.sv(158) @ 1215: uvm_test_top.env.sub [sub] [DRIVER]:INPUT RECIEVED
UVM_INFO axi_op_monitor.sv(81) @ 1215: uvm_test_top.env.op_agt.op_mon [OP_B] BVALID=1 BREADY=1 BRESP=11
UVM_INFO axi_scoreboard.sv(42) @ 1215: uvm_test_top.env.scb [SCB] 2
UVM_INFO axi_scoreboard.sv(105) @ 1215: uvm_test_top.env.scb [SCB] WRITE ADDRESS PASS: Exp_AWADDR=746ca244 Actual_AWADDR=746ca244
UVM_INFO axi_scoreboard.sv(110) @ 1215: uvm_test_top.env.scb [SCB] WRITE DATA PASS: Exp_WDATA=946a4346 Actual_WDATA=946a4346
UVM_INFO axi_scoreboard.sv(115) @ 1215: uvm_test_top.env.scb [SCB] WRITE WSTRB PASS: Exp_WSTRB=2 Actual_WSTRB=2
UVM_INFO axi_scoreboard.sv(120) @ 1215: uvm_test_top.env.scb [SCB] WRITE BRESP PASS: Exp_BRESP=11 Actual_BRESP=11
UVM_INFO axi_driver.sv(111) @ 1235: uvm_test_top.env.inp_agt.inp_drv [AXI_AW] AWADDR=69da52d AWPROT=0 AWVALID=1 AWREADY=1
UVM_INFO axi_inp_monitor.sv(64) @ 1245: uvm_test_top.env.inp_agt.inp_mon [AXI_AW] AWADDR=69da52d AWPROT=0 AWVALID=1 AWREADY=1
UVM_INFO axi_op_monitor.sv(64) @ 1245: uvm_test_top.env.op_agt.op_mon [OP_AW] AWVALID=1 AWREADY=1 AWADDR=69da52d AWPROT=0
UVM_INFO axi_driver.sv(129) @ 1265: uvm_test_top.env.inp_agt.inp_drv [AXI_W] WDATA=7c38dfeb WSTRB=b WVALID=1 WREADY=1
UVM_INFO axi_inp_monitor.sv(73) @ 1275: uvm_test_top.env.inp_agt.inp_mon [AXI_W] WDATA=7c38dfeb WSTRB=b WVALID=1 WREADY=1
UVM_INFO axi_op_monitor.sv(73) @ 1275: uvm_test_top.env.op_agt.op_mon [OP_W] WVALID=1 WREADY=1 WDATA=7c38dfeb WSTRB=b
reg_file[0] = 00000000
reg_file[1] = 00000000
reg_file[2] = 00000000
reg_file[3] = 00000000
reg_file[4] = 00000000
reg_file[5] = 00000000
reg_file[6] = 00000000
reg_file[7] = 00000000
reg_file[8] = 00000000
reg_file[9] = 00000000
reg_file[10] = 00000000
reg_file[11] = 00000000
reg_file[12] = 00000000
reg_file[13] = 00000000
reg_file[14] = 00000000
reg_file[15] = 00000000
UVM_INFO axi_driver.sv(145) @ 1295: uvm_test_top.env.inp_agt.inp_drv [AXI_B] BREADY=1 BVALID=1 BRESP=11
UVM_INFO axi_inp_monitor.sv(81) @ 1305: uvm_test_top.env.inp_agt.inp_mon [AXI_B] BREADY=1 BRESP=11 BVALID=1
UVM_INFO axi_subscriber.sv(158) @ 1305: uvm_test_top.env.sub [sub] [DRIVER]:INPUT RECIEVED
UVM_INFO axi_op_monitor.sv(81) @ 1305: uvm_test_top.env.op_agt.op_mon [OP_B] BVALID=1 BREADY=1 BRESP=11
UVM_INFO axi_scoreboard.sv(42) @ 1305: uvm_test_top.env.scb [SCB] b
UVM_INFO axi_scoreboard.sv(105) @ 1305: uvm_test_top.env.scb [SCB] WRITE ADDRESS PASS: Exp_AWADDR=69da52d Actual_AWADDR=69da52d
UVM_INFO axi_scoreboard.sv(110) @ 1305: uvm_test_top.env.scb [SCB] WRITE DATA PASS: Exp_WDATA=7c38dfeb Actual_WDATA=7c38dfeb
UVM_INFO axi_scoreboard.sv(115) @ 1305: uvm_test_top.env.scb [SCB] WRITE WSTRB PASS: Exp_WSTRB=b Actual_WSTRB=b
UVM_INFO axi_scoreboard.sv(120) @ 1305: uvm_test_top.env.scb [SCB] WRITE BRESP PASS: Exp_BRESP=11 Actual_BRESP=11
UVM_INFO axi_driver.sv(111) @ 1325: uvm_test_top.env.inp_agt.inp_drv [AXI_AW] AWADDR=60a862df AWPROT=0 AWVALID=1 AWREADY=1
UVM_INFO axi_inp_monitor.sv(64) @ 1335: uvm_test_top.env.inp_agt.inp_mon [AXI_AW] AWADDR=60a862df AWPROT=0 AWVALID=1 AWREADY=1
UVM_INFO axi_op_monitor.sv(64) @ 1335: uvm_test_top.env.op_agt.op_mon [OP_AW] AWVALID=1 AWREADY=1 AWADDR=60a862df AWPROT=0
UVM_INFO axi_driver.sv(129) @ 1355: uvm_test_top.env.inp_agt.inp_drv [AXI_W] WDATA=b7098312 WSTRB=4 WVALID=1 WREADY=1
UVM_INFO axi_inp_monitor.sv(73) @ 1365: uvm_test_top.env.inp_agt.inp_mon [AXI_W] WDATA=b7098312 WSTRB=4 WVALID=1 WREADY=1
UVM_INFO axi_op_monitor.sv(73) @ 1365: uvm_test_top.env.op_agt.op_mon [OP_W] WVALID=1 WREADY=1 WDATA=b7098312 WSTRB=4
reg_file[0] = 00000000
reg_file[1] = 00000000
reg_file[2] = 00000000
reg_file[3] = 00000000
reg_file[4] = 00000000
reg_file[5] = 00000000
reg_file[6] = 00000000
reg_file[7] = 00000000
reg_file[8] = 00000000
reg_file[9] = 00000000
reg_file[10] = 00000000
reg_file[11] = 00000000
reg_file[12] = 00000000
reg_file[13] = 00000000
reg_file[14] = 00000000
reg_file[15] = 00000000
UVM_INFO axi_driver.sv(145) @ 1385: uvm_test_top.env.inp_agt.inp_drv [AXI_B] BREADY=1 BVALID=1 BRESP=11
UVM_INFO axi_inp_monitor.sv(81) @ 1395: uvm_test_top.env.inp_agt.inp_mon [AXI_B] BREADY=1 BRESP=11 BVALID=1
UVM_INFO axi_subscriber.sv(158) @ 1395: uvm_test_top.env.sub [sub] [DRIVER]:INPUT RECIEVED
UVM_INFO axi_op_monitor.sv(81) @ 1395: uvm_test_top.env.op_agt.op_mon [OP_B] BVALID=1 BREADY=1 BRESP=11
UVM_INFO axi_scoreboard.sv(42) @ 1395: uvm_test_top.env.scb [SCB] 4
UVM_INFO axi_scoreboard.sv(105) @ 1395: uvm_test_top.env.scb [SCB] WRITE ADDRESS PASS: Exp_AWADDR=60a862df Actual_AWADDR=60a862df
UVM_INFO axi_scoreboard.sv(110) @ 1395: uvm_test_top.env.scb [SCB] WRITE DATA PASS: Exp_WDATA=b7098312 Actual_WDATA=b7098312
UVM_INFO axi_scoreboard.sv(115) @ 1395: uvm_test_top.env.scb [SCB] WRITE WSTRB PASS: Exp_WSTRB=4 Actual_WSTRB=4
UVM_INFO axi_scoreboard.sv(120) @ 1395: uvm_test_top.env.scb [SCB] WRITE BRESP PASS: Exp_BRESP=11 Actual_BRESP=11
UVM_INFO axi_driver.sv(111) @ 1415: uvm_test_top.env.inp_agt.inp_drv [AXI_AW] AWADDR=85a995af AWPROT=0 AWVALID=1 AWREADY=1
UVM_INFO axi_inp_monitor.sv(64) @ 1425: uvm_test_top.env.inp_agt.inp_mon [AXI_AW] AWADDR=85a995af AWPROT=0 AWVALID=1 AWREADY=1
UVM_INFO axi_op_monitor.sv(64) @ 1425: uvm_test_top.env.op_agt.op_mon [OP_AW] AWVALID=1 AWREADY=1 AWADDR=85a995af AWPROT=0
UVM_INFO axi_driver.sv(129) @ 1445: uvm_test_top.env.inp_agt.inp_drv [AXI_W] WDATA=40d8a828 WSTRB=f WVALID=1 WREADY=1
UVM_INFO axi_inp_monitor.sv(73) @ 1455: uvm_test_top.env.inp_agt.inp_mon [AXI_W] WDATA=40d8a828 WSTRB=f WVALID=1 WREADY=1
UVM_INFO axi_op_monitor.sv(73) @ 1455: uvm_test_top.env.op_agt.op_mon [OP_W] WVALID=1 WREADY=1 WDATA=40d8a828 WSTRB=f
reg_file[0] = 00000000
reg_file[1] = 00000000
reg_file[2] = 00000000
reg_file[3] = 00000000
reg_file[4] = 00000000
reg_file[5] = 00000000
reg_file[6] = 00000000
reg_file[7] = 00000000
reg_file[8] = 00000000
reg_file[9] = 00000000
reg_file[10] = 00000000
reg_file[11] = 00000000
reg_file[12] = 00000000
reg_file[13] = 00000000
reg_file[14] = 00000000
reg_file[15] = 00000000
UVM_INFO axi_driver.sv(145) @ 1475: uvm_test_top.env.inp_agt.inp_drv [AXI_B] BREADY=1 BVALID=1 BRESP=11
UVM_INFO axi_inp_monitor.sv(81) @ 1485: uvm_test_top.env.inp_agt.inp_mon [AXI_B] BREADY=1 BRESP=11 BVALID=1
UVM_INFO axi_subscriber.sv(158) @ 1485: uvm_test_top.env.sub [sub] [DRIVER]:INPUT RECIEVED
UVM_INFO axi_op_monitor.sv(81) @ 1485: uvm_test_top.env.op_agt.op_mon [OP_B] BVALID=1 BREADY=1 BRESP=11
UVM_INFO axi_scoreboard.sv(42) @ 1485: uvm_test_top.env.scb [SCB] f
UVM_INFO axi_scoreboard.sv(105) @ 1485: uvm_test_top.env.scb [SCB] WRITE ADDRESS PASS: Exp_AWADDR=85a995af Actual_AWADDR=85a995af
UVM_INFO axi_scoreboard.sv(110) @ 1485: uvm_test_top.env.scb [SCB] WRITE DATA PASS: Exp_WDATA=40d8a828 Actual_WDATA=40d8a828
UVM_INFO axi_scoreboard.sv(115) @ 1485: uvm_test_top.env.scb [SCB] WRITE WSTRB PASS: Exp_WSTRB=f Actual_WSTRB=f
UVM_INFO axi_scoreboard.sv(120) @ 1485: uvm_test_top.env.scb [SCB] WRITE BRESP PASS: Exp_BRESP=11 Actual_BRESP=11
UVM_INFO axi_driver.sv(111) @ 1505: uvm_test_top.env.inp_agt.inp_drv [AXI_AW] AWADDR=503f54fc AWPROT=0 AWVALID=1 AWREADY=1
UVM_INFO axi_inp_monitor.sv(64) @ 1515: uvm_test_top.env.inp_agt.inp_mon [AXI_AW] AWADDR=503f54fc AWPROT=0 AWVALID=1 AWREADY=1
UVM_INFO axi_op_monitor.sv(64) @ 1515: uvm_test_top.env.op_agt.op_mon [OP_AW] AWVALID=1 AWREADY=1 AWADDR=503f54fc AWPROT=0
UVM_INFO axi_driver.sv(129) @ 1535: uvm_test_top.env.inp_agt.inp_drv [AXI_W] WDATA=f60088d8 WSTRB=8 WVALID=1 WREADY=1
UVM_INFO axi_inp_monitor.sv(73) @ 1545: uvm_test_top.env.inp_agt.inp_mon [AXI_W] WDATA=f60088d8 WSTRB=8 WVALID=1 WREADY=1
UVM_INFO axi_op_monitor.sv(73) @ 1545: uvm_test_top.env.op_agt.op_mon [OP_W] WVALID=1 WREADY=1 WDATA=f60088d8 WSTRB=8
reg_file[0] = 00000000
reg_file[1] = 00000000
reg_file[2] = 00000000
reg_file[3] = 00000000
reg_file[4] = 00000000
reg_file[5] = 00000000
reg_file[6] = 00000000
reg_file[7] = 00000000
reg_file[8] = 00000000
reg_file[9] = 00000000
reg_file[10] = 00000000
reg_file[11] = 00000000
reg_file[12] = 00000000
reg_file[13] = 00000000
reg_file[14] = 00000000
reg_file[15] = 00000000
UVM_INFO axi_driver.sv(145) @ 1565: uvm_test_top.env.inp_agt.inp_drv [AXI_B] BREADY=1 BVALID=1 BRESP=11
UVM_INFO axi_inp_monitor.sv(81) @ 1575: uvm_test_top.env.inp_agt.inp_mon [AXI_B] BREADY=1 BRESP=11 BVALID=1
UVM_INFO axi_subscriber.sv(158) @ 1575: uvm_test_top.env.sub [sub] [DRIVER]:INPUT RECIEVED
UVM_INFO axi_op_monitor.sv(81) @ 1575: uvm_test_top.env.op_agt.op_mon [OP_B] BVALID=1 BREADY=1 BRESP=11
UVM_INFO axi_scoreboard.sv(42) @ 1575: uvm_test_top.env.scb [SCB] 8
UVM_INFO axi_scoreboard.sv(105) @ 1575: uvm_test_top.env.scb [SCB] WRITE ADDRESS PASS: Exp_AWADDR=503f54fc Actual_AWADDR=503f54fc
UVM_INFO axi_scoreboard.sv(110) @ 1575: uvm_test_top.env.scb [SCB] WRITE DATA PASS: Exp_WDATA=f60088d8 Actual_WDATA=f60088d8
UVM_INFO axi_scoreboard.sv(115) @ 1575: uvm_test_top.env.scb [SCB] WRITE WSTRB PASS: Exp_WSTRB=8 Actual_WSTRB=8
UVM_INFO axi_scoreboard.sv(120) @ 1575: uvm_test_top.env.scb [SCB] WRITE BRESP PASS: Exp_BRESP=11 Actual_BRESP=11
UVM_INFO axi_driver.sv(111) @ 1595: uvm_test_top.env.inp_agt.inp_drv [AXI_AW] AWADDR=1b71ad91 AWPROT=0 AWVALID=1 AWREADY=1
UVM_INFO axi_inp_monitor.sv(64) @ 1605: uvm_test_top.env.inp_agt.inp_mon [AXI_AW] AWADDR=1b71ad91 AWPROT=0 AWVALID=1 AWREADY=1
UVM_INFO axi_op_monitor.sv(64) @ 1605: uvm_test_top.env.op_agt.op_mon [OP_AW] AWVALID=1 AWREADY=1 AWADDR=1b71ad91 AWPROT=0
UVM_INFO axi_driver.sv(129) @ 1625: uvm_test_top.env.inp_agt.inp_drv [AXI_W] WDATA=545620f9 WSTRB=5 WVALID=1 WREADY=1
UVM_INFO axi_inp_monitor.sv(73) @ 1635: uvm_test_top.env.inp_agt.inp_mon [AXI_W] WDATA=545620f9 WSTRB=5 WVALID=1 WREADY=1
UVM_INFO axi_op_monitor.sv(73) @ 1635: uvm_test_top.env.op_agt.op_mon [OP_W] WVALID=1 WREADY=1 WDATA=545620f9 WSTRB=5
reg_file[0] = 00000000
reg_file[1] = 00000000
reg_file[2] = 00000000
reg_file[3] = 00000000
reg_file[4] = 00000000
reg_file[5] = 00000000
reg_file[6] = 00000000
reg_file[7] = 00000000
reg_file[8] = 00000000
reg_file[9] = 00000000
reg_file[10] = 00000000
reg_file[11] = 00000000
reg_file[12] = 00000000
reg_file[13] = 00000000
reg_file[14] = 00000000
reg_file[15] = 00000000
UVM_INFO axi_driver.sv(145) @ 1655: uvm_test_top.env.inp_agt.inp_drv [AXI_B] BREADY=1 BVALID=1 BRESP=11
UVM_INFO axi_inp_monitor.sv(81) @ 1665: uvm_test_top.env.inp_agt.inp_mon [AXI_B] BREADY=1 BRESP=11 BVALID=1
UVM_INFO axi_subscriber.sv(158) @ 1665: uvm_test_top.env.sub [sub] [DRIVER]:INPUT RECIEVED
UVM_INFO axi_op_monitor.sv(81) @ 1665: uvm_test_top.env.op_agt.op_mon [OP_B] BVALID=1 BREADY=1 BRESP=11
UVM_INFO axi_scoreboard.sv(42) @ 1665: uvm_test_top.env.scb [SCB] 5
UVM_INFO axi_scoreboard.sv(105) @ 1665: uvm_test_top.env.scb [SCB] WRITE ADDRESS PASS: Exp_AWADDR=1b71ad91 Actual_AWADDR=1b71ad91
UVM_INFO axi_scoreboard.sv(110) @ 1665: uvm_test_top.env.scb [SCB] WRITE DATA PASS: Exp_WDATA=545620f9 Actual_WDATA=545620f9
UVM_INFO axi_scoreboard.sv(115) @ 1665: uvm_test_top.env.scb [SCB] WRITE WSTRB PASS: Exp_WSTRB=5 Actual_WSTRB=5
UVM_INFO axi_scoreboard.sv(120) @ 1665: uvm_test_top.env.scb [SCB] WRITE BRESP PASS: Exp_BRESP=11 Actual_BRESP=11
UVM_INFO axi_driver.sv(111) @ 1685: uvm_test_top.env.inp_agt.inp_drv [AXI_AW] AWADDR=70222455 AWPROT=0 AWVALID=1 AWREADY=1
UVM_INFO axi_inp_monitor.sv(64) @ 1695: uvm_test_top.env.inp_agt.inp_mon [AXI_AW] AWADDR=70222455 AWPROT=0 AWVALID=1 AWREADY=1
UVM_INFO axi_op_monitor.sv(64) @ 1695: uvm_test_top.env.op_agt.op_mon [OP_AW] AWVALID=1 AWREADY=1 AWADDR=70222455 AWPROT=0
UVM_INFO axi_driver.sv(129) @ 1715: uvm_test_top.env.inp_agt.inp_drv [AXI_W] WDATA=ffa3689f WSTRB=1 WVALID=1 WREADY=1
UVM_INFO axi_inp_monitor.sv(73) @ 1725: uvm_test_top.env.inp_agt.inp_mon [AXI_W] WDATA=ffa3689f WSTRB=1 WVALID=1 WREADY=1
UVM_INFO axi_op_monitor.sv(73) @ 1725: uvm_test_top.env.op_agt.op_mon [OP_W] WVALID=1 WREADY=1 WDATA=ffa3689f WSTRB=1
reg_file[0] = 00000000
reg_file[1] = 00000000
reg_file[2] = 00000000
reg_file[3] = 00000000
reg_file[4] = 00000000
reg_file[5] = 00000000
reg_file[6] = 00000000
reg_file[7] = 00000000
reg_file[8] = 00000000
reg_file[9] = 00000000
reg_file[10] = 00000000
reg_file[11] = 00000000
reg_file[12] = 00000000
reg_file[13] = 00000000
reg_file[14] = 00000000
reg_file[15] = 00000000
UVM_INFO axi_driver.sv(145) @ 1745: uvm_test_top.env.inp_agt.inp_drv [AXI_B] BREADY=1 BVALID=1 BRESP=11
UVM_INFO axi_inp_monitor.sv(81) @ 1755: uvm_test_top.env.inp_agt.inp_mon [AXI_B] BREADY=1 BRESP=11 BVALID=1
UVM_INFO axi_subscriber.sv(158) @ 1755: uvm_test_top.env.sub [sub] [DRIVER]:INPUT RECIEVED
UVM_INFO axi_op_monitor.sv(81) @ 1755: uvm_test_top.env.op_agt.op_mon [OP_B] BVALID=1 BREADY=1 BRESP=11
UVM_INFO axi_scoreboard.sv(42) @ 1755: uvm_test_top.env.scb [SCB] 1
UVM_INFO axi_scoreboard.sv(105) @ 1755: uvm_test_top.env.scb [SCB] WRITE ADDRESS PASS: Exp_AWADDR=70222455 Actual_AWADDR=70222455
UVM_INFO axi_scoreboard.sv(110) @ 1755: uvm_test_top.env.scb [SCB] WRITE DATA PASS: Exp_WDATA=ffa3689f Actual_WDATA=ffa3689f
UVM_INFO axi_scoreboard.sv(115) @ 1755: uvm_test_top.env.scb [SCB] WRITE WSTRB PASS: Exp_WSTRB=1 Actual_WSTRB=1
UVM_INFO axi_scoreboard.sv(120) @ 1755: uvm_test_top.env.scb [SCB] WRITE BRESP PASS: Exp_BRESP=11 Actual_BRESP=11
UVM_INFO axi_driver.sv(111) @ 1775: uvm_test_top.env.inp_agt.inp_drv [AXI_AW] AWADDR=d374d93d AWPROT=0 AWVALID=1 AWREADY=1
UVM_INFO axi_inp_monitor.sv(64) @ 1785: uvm_test_top.env.inp_agt.inp_mon [AXI_AW] AWADDR=d374d93d AWPROT=0 AWVALID=1 AWREADY=1
UVM_INFO axi_op_monitor.sv(64) @ 1785: uvm_test_top.env.op_agt.op_mon [OP_AW] AWVALID=1 AWREADY=1 AWADDR=d374d93d AWPROT=0
UVM_INFO axi_driver.sv(129) @ 1805: uvm_test_top.env.inp_agt.inp_drv [AXI_W] WDATA=74fef56c WSTRB=9 WVALID=1 WREADY=1
UVM_INFO axi_inp_monitor.sv(73) @ 1815: uvm_test_top.env.inp_agt.inp_mon [AXI_W] WDATA=74fef56c WSTRB=9 WVALID=1 WREADY=1
UVM_INFO axi_op_monitor.sv(73) @ 1815: uvm_test_top.env.op_agt.op_mon [OP_W] WVALID=1 WREADY=1 WDATA=74fef56c WSTRB=9
UVM_INFO /fetools/synopsys/installed_tools/vcs/vcs/Q-2020.03-SP2-8/etc/uvm/base/uvm_objection.svh(1274) @ 1825: reporter [TEST_DONE] 'run' phase is ready to proceed to the 'extract' phase
UVM_INFO axi_subscriber.sv(163) @ 1825: uvm_test_top.env.sub [sub] INPUT COVERAGE = 59.027779


--- UVM Report Summary ---

** Report counts by severity
UVM_INFO :  296
UVM_WARNING :    0
UVM_ERROR :    0
UVM_FATAL :    0
** Report counts by id
[AXI_AW]    40
[AXI_B]    38
[AXI_W]    40
[DRV]     1
[OP_AW]    20
[OP_B]    19
[OP_W]    20
[RNTST]     1
[SCB]    95
[TEST_DONE]     1
[UVMTOP]     1
[sub]    20
$finish called from file "/fetools/synopsys/installed_tools/vcs/vcs/Q-2020.03-SP2-8/etc/uvm/base/uvm_root.svh", line 437.
$finish at simulation time                 1825

---------------------------------------------------------------------------
VCS Coverage Metrics: during simulation line, cond, FSM, branch, tgl was monitored
---------------------------------------------------------------------------
           V C S   S i m u l a t i o n   R e p o r t 
Time: 1825 ns
CPU Time:      0.580 seconds;       Data structure size:   0.5Mb
Fri Sep 18 14:11:41 2026
