Command: /fetools/work_area/frontend/Batch_11/spoorthibhat/uvm/projects/AXI_Slave_Verification/src/work/simv +UVM_TESTNAME=test_write_coverage +UVM_VERBOSITY=UVM_HIGH +ntb_random_seed=6009 -cm line+cond+fsm+tgl+branch+assert -cm_dir work/regression.vdb -cm_name test_write_coverage_6009 -l work/logs/test_write_coverage_6009.log +UVM_NO_RELNOTES
Chronologic VCS simulator copyright 1991-2020
Contains Synopsys proprietary information.
Compiler version Q-2020.03-SP2-8_Full64; Runtime version Q-2020.03-SP2-8_Full64;  Sep 18 14:50 2026
----------------------------------------------------------------
UVM-1.1d.Synopsys
(C) 2007-2013 Mentor Graphics Corporation
(C) 2007-2013 Cadence Design Systems, Inc.
(C) 2006-2013 Synopsys, Inc.
(C) 2011-2013 Cypress Semiconductor Corp.
----------------------------------------------------------------
### TOP INITIAL START : time=0
### AFTER CONFIG SET : time=0
UVM_INFO @ 0: reporter [RNTST] Running test test_write_coverage...
UVM_INFO @ 0: reporter [UVMTOP] UVM testbench topology:
-----------------------------------------------------------------------
Name                            Type                        Size  Value
-----------------------------------------------------------------------
uvm_test_top                    test_write_coverage         -     @477 
  env                           axi_env                     -     @491 
    inp_agt                     axi_inp_agent               -     @500 
      inp_drv                   axi_driver                  -     @1030
        rd_prt                  uvm_seq_item_pull_port      -     @1056
        rsp_port                uvm_analysis_port           -     @1047
        seq_item_port           uvm_seq_item_pull_port      -     @1038
      inp_mon                   axi_inp_monitor             -     @758 
        inp_monitor_port_read   uvm_analysis_port           -     @775 
        inp_monitor_port_write  uvm_analysis_port           -     @766 
      rd_sqr                    axi_sequencer               -     @907 
        rsp_export              uvm_analysis_export         -     @915 
        seq_item_export         uvm_seq_item_pull_imp       -     @1021
        arbitration_queue       array                       0     -    
        lock_queue              array                       0     -    
        num_last_reqs           integral                    32    'd1  
        num_last_rsps           integral                    32    'd1  
      wr_sqr                    axi_sequencer               -     @784 
        rsp_export              uvm_analysis_export         -     @792 
        seq_item_export         uvm_seq_item_pull_imp       -     @898 
        arbitration_queue       array                       0     -    
        lock_queue              array                       0     -    
        num_last_reqs           integral                    32    'd1  
        num_last_rsps           integral                    32    'd1  
    op_agt                      axi_op_agent                -     @508 
      op_mon                    axi_op_monitor              -     @1084
        op_m_port_read          uvm_analysis_port           -     @1101
        op_m_port_write         uvm_analysis_port           -     @1092
    scb                         axi_scoreboard              -     @516 
      ip_mon_fifo_read          uvm_tlm_analysis_fifo #(T)  -     @577 
        analysis_export         uvm_analysis_imp            -     @621 
        get_ap                  uvm_analysis_port           -     @612 
        get_peek_export         uvm_get_peek_imp            -     @594 
        put_ap                  uvm_analysis_port           -     @603 
        put_export              uvm_put_imp                 -     @585 
      ip_mon_fifo_write         uvm_tlm_analysis_fifo #(T)  -     @524 
        analysis_export         uvm_analysis_imp            -     @568 
        get_ap                  uvm_analysis_port           -     @559 
        get_peek_export         uvm_get_peek_imp            -     @541 
        put_ap                  uvm_analysis_port           -     @550 
        put_export              uvm_put_imp                 -     @532 
      op_mon_fifo_read          uvm_tlm_analysis_fifo #(T)  -     @683 
        analysis_export         uvm_analysis_imp            -     @727 
        get_ap                  uvm_analysis_port           -     @718 
        get_peek_export         uvm_get_peek_imp            -     @700 
        put_ap                  uvm_analysis_port           -     @709 
        put_export              uvm_put_imp                 -     @691 
      op_mon_fifo_write         uvm_tlm_analysis_fifo #(T)  -     @630 
        analysis_export         uvm_analysis_imp            -     @674 
        get_ap                  uvm_analysis_port           -     @665 
        get_peek_export         uvm_get_peek_imp            -     @647 
        put_ap                  uvm_analysis_port           -     @656 
        put_export              uvm_put_imp                 -     @638 
    sub                         axi_subscriber              -     @736 
      analysis_imp              uvm_analysis_imp            -     @744 
-----------------------------------------------------------------------

UVM_INFO axi_driver.sv(30) @ 0: uvm_test_top.env.inp_agt.inp_drv [DRV] Sequence Body started
UVM_INFO axi_driver.sv(111) @ 45: uvm_test_top.env.inp_agt.inp_drv [AXI_AW] AWADDR=ffffffff AWPROT=0 AWVALID=1 AWREADY=1
UVM_INFO axi_inp_monitor.sv(64) @ 55: uvm_test_top.env.inp_agt.inp_mon [AXI_AW] AWADDR=ffffffff AWPROT=0 AWVALID=1 AWREADY=1
UVM_INFO axi_op_monitor.sv(64) @ 55: uvm_test_top.env.op_agt.op_mon [OP_AW] AWVALID=1 AWREADY=1 AWADDR=ffffffff AWPROT=0
UVM_INFO axi_driver.sv(129) @ 75: uvm_test_top.env.inp_agt.inp_drv [AXI_W] WDATA=ffffffff WSTRB=4 WVALID=1 WREADY=1
UVM_INFO axi_inp_monitor.sv(73) @ 85: uvm_test_top.env.inp_agt.inp_mon [AXI_W] WDATA=ffffffff WSTRB=4 WVALID=1 WREADY=1
UVM_INFO axi_op_monitor.sv(73) @ 85: uvm_test_top.env.op_agt.op_mon [OP_W] WVALID=1 WREADY=1 WDATA=ffffffff WSTRB=4
reg_file[0] = 00000000
reg_file[1] = 00000000
reg_file[2] = 00000000
reg_file[3] = 00000000
reg_file[4] = 00000000
reg_file[5] = 00000000
reg_file[6] = 00000000
reg_file[7] = 00000000
reg_file[8] = 00000000
reg_file[9] = 00000000
reg_file[10] = 00000000
reg_file[11] = 00000000
reg_file[12] = 00000000
reg_file[13] = 00000000
reg_file[14] = 00000000
reg_file[15] = 00000000
UVM_INFO axi_driver.sv(145) @ 105: uvm_test_top.env.inp_agt.inp_drv [AXI_B] BREADY=1 BVALID=1 BRESP=11
UVM_INFO axi_inp_monitor.sv(81) @ 115: uvm_test_top.env.inp_agt.inp_mon [AXI_B] BREADY=1 BRESP=11 BVALID=1
UVM_INFO axi_subscriber.sv(158) @ 115: uvm_test_top.env.sub [sub] [DRIVER]:INPUT RECIEVED
UVM_INFO axi_op_monitor.sv(81) @ 115: uvm_test_top.env.op_agt.op_mon [OP_B] BVALID=1 BREADY=1 BRESP=11
UVM_INFO axi_scoreboard.sv(42) @ 115: uvm_test_top.env.scb [SCB] 4
UVM_INFO axi_scoreboard.sv(105) @ 115: uvm_test_top.env.scb [SCB] WRITE ADDRESS PASS: Exp_AWADDR=ffffffff Actual_AWADDR=ffffffff
UVM_INFO axi_scoreboard.sv(110) @ 115: uvm_test_top.env.scb [SCB] WRITE DATA PASS: Exp_WDATA=ffffffff Actual_WDATA=ffffffff
UVM_INFO axi_scoreboard.sv(115) @ 115: uvm_test_top.env.scb [SCB] WRITE WSTRB PASS: Exp_WSTRB=4 Actual_WSTRB=4
UVM_INFO axi_scoreboard.sv(120) @ 115: uvm_test_top.env.scb [SCB] WRITE BRESP PASS: Exp_BRESP=11 Actual_BRESP=11
UVM_INFO axi_driver.sv(111) @ 155: uvm_test_top.env.inp_agt.inp_drv [AXI_AW] AWADDR=ffffffff AWPROT=0 AWVALID=1 AWREADY=1
UVM_INFO axi_inp_monitor.sv(64) @ 165: uvm_test_top.env.inp_agt.inp_mon [AXI_AW] AWADDR=ffffffff AWPROT=0 AWVALID=1 AWREADY=1
UVM_INFO axi_op_monitor.sv(64) @ 165: uvm_test_top.env.op_agt.op_mon [OP_AW] AWVALID=1 AWREADY=1 AWADDR=ffffffff AWPROT=0
UVM_INFO axi_driver.sv(129) @ 185: uvm_test_top.env.inp_agt.inp_drv [AXI_W] WDATA=ffffffff WSTRB=a WVALID=1 WREADY=1
UVM_INFO axi_inp_monitor.sv(73) @ 195: uvm_test_top.env.inp_agt.inp_mon [AXI_W] WDATA=ffffffff WSTRB=a WVALID=1 WREADY=1
UVM_INFO axi_op_monitor.sv(73) @ 195: uvm_test_top.env.op_agt.op_mon [OP_W] WVALID=1 WREADY=1 WDATA=ffffffff WSTRB=a
reg_file[0] = 00000000
reg_file[1] = 00000000
reg_file[2] = 00000000
reg_file[3] = 00000000
reg_file[4] = 00000000
reg_file[5] = 00000000
reg_file[6] = 00000000
reg_file[7] = 00000000
reg_file[8] = 00000000
reg_file[9] = 00000000
reg_file[10] = 00000000
reg_file[11] = 00000000
reg_file[12] = 00000000
reg_file[13] = 00000000
reg_file[14] = 00000000
reg_file[15] = 00000000
UVM_INFO axi_driver.sv(145) @ 215: uvm_test_top.env.inp_agt.inp_drv [AXI_B] BREADY=1 BVALID=1 BRESP=11
UVM_INFO axi_inp_monitor.sv(81) @ 225: uvm_test_top.env.inp_agt.inp_mon [AXI_B] BREADY=1 BRESP=11 BVALID=1
UVM_INFO axi_subscriber.sv(158) @ 225: uvm_test_top.env.sub [sub] [DRIVER]:INPUT RECIEVED
UVM_INFO axi_op_monitor.sv(81) @ 225: uvm_test_top.env.op_agt.op_mon [OP_B] BVALID=1 BREADY=1 BRESP=11
UVM_INFO axi_scoreboard.sv(42) @ 225: uvm_test_top.env.scb [SCB] a
UVM_INFO axi_scoreboard.sv(105) @ 225: uvm_test_top.env.scb [SCB] WRITE ADDRESS PASS: Exp_AWADDR=ffffffff Actual_AWADDR=ffffffff
UVM_INFO axi_scoreboard.sv(110) @ 225: uvm_test_top.env.scb [SCB] WRITE DATA PASS: Exp_WDATA=ffffffff Actual_WDATA=ffffffff
UVM_INFO axi_scoreboard.sv(115) @ 225: uvm_test_top.env.scb [SCB] WRITE WSTRB PASS: Exp_WSTRB=a Actual_WSTRB=a
UVM_INFO axi_scoreboard.sv(120) @ 225: uvm_test_top.env.scb [SCB] WRITE BRESP PASS: Exp_BRESP=11 Actual_BRESP=11
UVM_INFO axi_driver.sv(111) @ 245: uvm_test_top.env.inp_agt.inp_drv [AXI_AW] AWADDR=ffffffff AWPROT=0 AWVALID=1 AWREADY=1
UVM_INFO axi_inp_monitor.sv(64) @ 255: uvm_test_top.env.inp_agt.inp_mon [AXI_AW] AWADDR=ffffffff AWPROT=0 AWVALID=1 AWREADY=1
UVM_INFO axi_op_monitor.sv(64) @ 255: uvm_test_top.env.op_agt.op_mon [OP_AW] AWVALID=1 AWREADY=1 AWADDR=ffffffff AWPROT=0
UVM_INFO axi_driver.sv(129) @ 275: uvm_test_top.env.inp_agt.inp_drv [AXI_W] WDATA=ffffffff WSTRB=2 WVALID=1 WREADY=1
UVM_INFO axi_inp_monitor.sv(73) @ 285: uvm_test_top.env.inp_agt.inp_mon [AXI_W] WDATA=ffffffff WSTRB=2 WVALID=1 WREADY=1
UVM_INFO axi_op_monitor.sv(73) @ 285: uvm_test_top.env.op_agt.op_mon [OP_W] WVALID=1 WREADY=1 WDATA=ffffffff WSTRB=2
reg_file[0] = 00000000
reg_file[1] = 00000000
reg_file[2] = 00000000
reg_file[3] = 00000000
reg_file[4] = 00000000
reg_file[5] = 00000000
reg_file[6] = 00000000
reg_file[7] = 00000000
reg_file[8] = 00000000
reg_file[9] = 00000000
reg_file[10] = 00000000
reg_file[11] = 00000000
reg_file[12] = 00000000
reg_file[13] = 00000000
reg_file[14] = 00000000
reg_file[15] = 00000000
UVM_INFO axi_driver.sv(145) @ 305: uvm_test_top.env.inp_agt.inp_drv [AXI_B] BREADY=1 BVALID=1 BRESP=11
UVM_INFO axi_inp_monitor.sv(81) @ 315: uvm_test_top.env.inp_agt.inp_mon [AXI_B] BREADY=1 BRESP=11 BVALID=1
UVM_INFO axi_subscriber.sv(158) @ 315: uvm_test_top.env.sub [sub] [DRIVER]:INPUT RECIEVED
UVM_INFO axi_op_monitor.sv(81) @ 315: uvm_test_top.env.op_agt.op_mon [OP_B] BVALID=1 BREADY=1 BRESP=11
UVM_INFO axi_scoreboard.sv(42) @ 315: uvm_test_top.env.scb [SCB] 2
UVM_INFO axi_scoreboard.sv(105) @ 315: uvm_test_top.env.scb [SCB] WRITE ADDRESS PASS: Exp_AWADDR=ffffffff Actual_AWADDR=ffffffff
UVM_INFO axi_scoreboard.sv(110) @ 315: uvm_test_top.env.scb [SCB] WRITE DATA PASS: Exp_WDATA=ffffffff Actual_WDATA=ffffffff
UVM_INFO axi_scoreboard.sv(115) @ 315: uvm_test_top.env.scb [SCB] WRITE WSTRB PASS: Exp_WSTRB=2 Actual_WSTRB=2
UVM_INFO axi_scoreboard.sv(120) @ 315: uvm_test_top.env.scb [SCB] WRITE BRESP PASS: Exp_BRESP=11 Actual_BRESP=11
UVM_INFO axi_driver.sv(111) @ 335: uvm_test_top.env.inp_agt.inp_drv [AXI_AW] AWADDR=ffffffff AWPROT=0 AWVALID=1 AWREADY=1
UVM_INFO axi_inp_monitor.sv(64) @ 345: uvm_test_top.env.inp_agt.inp_mon [AXI_AW] AWADDR=ffffffff AWPROT=0 AWVALID=1 AWREADY=1
UVM_INFO axi_op_monitor.sv(64) @ 345: uvm_test_top.env.op_agt.op_mon [OP_AW] AWVALID=1 AWREADY=1 AWADDR=ffffffff AWPROT=0
UVM_INFO axi_driver.sv(129) @ 365: uvm_test_top.env.inp_agt.inp_drv [AXI_W] WDATA=ffffffff WSTRB=4 WVALID=1 WREADY=1
UVM_INFO axi_inp_monitor.sv(73) @ 375: uvm_test_top.env.inp_agt.inp_mon [AXI_W] WDATA=ffffffff WSTRB=4 WVALID=1 WREADY=1
UVM_INFO axi_op_monitor.sv(73) @ 375: uvm_test_top.env.op_agt.op_mon [OP_W] WVALID=1 WREADY=1 WDATA=ffffffff WSTRB=4
reg_file[0] = 00000000
reg_file[1] = 00000000
reg_file[2] = 00000000
reg_file[3] = 00000000
reg_file[4] = 00000000
reg_file[5] = 00000000
reg_file[6] = 00000000
reg_file[7] = 00000000
reg_file[8] = 00000000
reg_file[9] = 00000000
reg_file[10] = 00000000
reg_file[11] = 00000000
reg_file[12] = 00000000
reg_file[13] = 00000000
reg_file[14] = 00000000
reg_file[15] = 00000000
UVM_INFO axi_driver.sv(145) @ 395: uvm_test_top.env.inp_agt.inp_drv [AXI_B] BREADY=1 BVALID=1 BRESP=11
UVM_INFO axi_inp_monitor.sv(81) @ 405: uvm_test_top.env.inp_agt.inp_mon [AXI_B] BREADY=1 BRESP=11 BVALID=1
UVM_INFO axi_subscriber.sv(158) @ 405: uvm_test_top.env.sub [sub] [DRIVER]:INPUT RECIEVED
UVM_INFO axi_op_monitor.sv(81) @ 405: uvm_test_top.env.op_agt.op_mon [OP_B] BVALID=1 BREADY=1 BRESP=11
UVM_INFO axi_scoreboard.sv(42) @ 405: uvm_test_top.env.scb [SCB] 4
UVM_INFO axi_scoreboard.sv(105) @ 405: uvm_test_top.env.scb [SCB] WRITE ADDRESS PASS: Exp_AWADDR=ffffffff Actual_AWADDR=ffffffff
UVM_INFO axi_scoreboard.sv(110) @ 405: uvm_test_top.env.scb [SCB] WRITE DATA PASS: Exp_WDATA=ffffffff Actual_WDATA=ffffffff
UVM_INFO axi_scoreboard.sv(115) @ 405: uvm_test_top.env.scb [SCB] WRITE WSTRB PASS: Exp_WSTRB=4 Actual_WSTRB=4
UVM_INFO axi_scoreboard.sv(120) @ 405: uvm_test_top.env.scb [SCB] WRITE BRESP PASS: Exp_BRESP=11 Actual_BRESP=11
UVM_INFO axi_driver.sv(111) @ 425: uvm_test_top.env.inp_agt.inp_drv [AXI_AW] AWADDR=ffffffff AWPROT=0 AWVALID=1 AWREADY=1
UVM_INFO axi_inp_monitor.sv(64) @ 435: uvm_test_top.env.inp_agt.inp_mon [AXI_AW] AWADDR=ffffffff AWPROT=0 AWVALID=1 AWREADY=1
UVM_INFO axi_op_monitor.sv(64) @ 435: uvm_test_top.env.op_agt.op_mon [OP_AW] AWVALID=1 AWREADY=1 AWADDR=ffffffff AWPROT=0
UVM_INFO axi_driver.sv(129) @ 455: uvm_test_top.env.inp_agt.inp_drv [AXI_W] WDATA=ffffffff WSTRB=e WVALID=1 WREADY=1
UVM_INFO axi_inp_monitor.sv(73) @ 465: uvm_test_top.env.inp_agt.inp_mon [AXI_W] WDATA=ffffffff WSTRB=e WVALID=1 WREADY=1
UVM_INFO axi_op_monitor.sv(73) @ 465: uvm_test_top.env.op_agt.op_mon [OP_W] WVALID=1 WREADY=1 WDATA=ffffffff WSTRB=e
reg_file[0] = 00000000
reg_file[1] = 00000000
reg_file[2] = 00000000
reg_file[3] = 00000000
reg_file[4] = 00000000
reg_file[5] = 00000000
reg_file[6] = 00000000
reg_file[7] = 00000000
reg_file[8] = 00000000
reg_file[9] = 00000000
reg_file[10] = 00000000
reg_file[11] = 00000000
reg_file[12] = 00000000
reg_file[13] = 00000000
reg_file[14] = 00000000
reg_file[15] = 00000000
UVM_INFO axi_driver.sv(145) @ 485: uvm_test_top.env.inp_agt.inp_drv [AXI_B] BREADY=1 BVALID=1 BRESP=11
UVM_INFO axi_inp_monitor.sv(81) @ 495: uvm_test_top.env.inp_agt.inp_mon [AXI_B] BREADY=1 BRESP=11 BVALID=1
UVM_INFO axi_subscriber.sv(158) @ 495: uvm_test_top.env.sub [sub] [DRIVER]:INPUT RECIEVED
UVM_INFO axi_op_monitor.sv(81) @ 495: uvm_test_top.env.op_agt.op_mon [OP_B] BVALID=1 BREADY=1 BRESP=11
UVM_INFO axi_scoreboard.sv(42) @ 495: uvm_test_top.env.scb [SCB] e
UVM_INFO axi_scoreboard.sv(105) @ 495: uvm_test_top.env.scb [SCB] WRITE ADDRESS PASS: Exp_AWADDR=ffffffff Actual_AWADDR=ffffffff
UVM_INFO axi_scoreboard.sv(110) @ 495: uvm_test_top.env.scb [SCB] WRITE DATA PASS: Exp_WDATA=ffffffff Actual_WDATA=ffffffff
UVM_INFO axi_scoreboard.sv(115) @ 495: uvm_test_top.env.scb [SCB] WRITE WSTRB PASS: Exp_WSTRB=e Actual_WSTRB=e
UVM_INFO axi_scoreboard.sv(120) @ 495: uvm_test_top.env.scb [SCB] WRITE BRESP PASS: Exp_BRESP=11 Actual_BRESP=11
UVM_INFO /fetools/synopsys/installed_tools/vcs/vcs/Q-2020.03-SP2-8/etc/uvm/base/uvm_objection.svh(1274) @ 525: reporter [TEST_DONE] 'run' phase is ready to proceed to the 'extract' phase
UVM_INFO axi_subscriber.sv(163) @ 525: uvm_test_top.env.sub [sub] INPUT COVERAGE = 54.166668


--- UVM Report Summary ---

** Report counts by severity
UVM_INFO :   80
UVM_WARNING :    0
UVM_ERROR :    0
UVM_FATAL :    0
** Report counts by id
[AXI_AW]    10
[AXI_B]    10
[AXI_W]    10
[DRV]     1
[OP_AW]     5
[OP_B]     5
[OP_W]     5
[RNTST]     1
[SCB]    25
[TEST_DONE]     1
[UVMTOP]     1
[sub]     6
$finish called from file "/fetools/synopsys/installed_tools/vcs/vcs/Q-2020.03-SP2-8/etc/uvm/base/uvm_root.svh", line 437.
$finish at simulation time                  525

---------------------------------------------------------------------------
VCS Coverage Metrics: during simulation line, cond, FSM, branch, tgl was monitored
---------------------------------------------------------------------------
           V C S   S i m u l a t i o n   R e p o r t 
Time: 525 ns
CPU Time:      0.500 seconds;       Data structure size:   0.5Mb
Fri Sep 18 14:50:17 2026
