Command: /fetools/work_area/frontend/Batch_11/spoorthibhat/uvm/projects/AXI_Slave_Verification/src/work/simv +UVM_TESTNAME=test_write +UVM_VERBOSITY=UVM_HIGH +ntb_random_seed=29343 -cm line+cond+fsm+tgl+branch+assert -cm_dir work/regression.vdb -cm_name test_write_29343 -l work/logs/test_write_29343.log +UVM_NO_RELNOTES
Chronologic VCS simulator copyright 1991-2020
Contains Synopsys proprietary information.
Compiler version Q-2020.03-SP2-8_Full64; Runtime version Q-2020.03-SP2-8_Full64;  Sep 18 14:55 2026
----------------------------------------------------------------
UVM-1.1d.Synopsys
(C) 2007-2013 Mentor Graphics Corporation
(C) 2007-2013 Cadence Design Systems, Inc.
(C) 2006-2013 Synopsys, Inc.
(C) 2011-2013 Cypress Semiconductor Corp.
----------------------------------------------------------------
### TOP INITIAL START : time=0
### AFTER CONFIG SET : time=0
UVM_INFO @ 0: reporter [RNTST] Running test test_write...
UVM_INFO @ 0: reporter [UVMTOP] UVM testbench topology:
-----------------------------------------------------------------------
Name                            Type                        Size  Value
-----------------------------------------------------------------------
uvm_test_top                    test_write                  -     @477 
  env                           axi_env                     -     @491 
    inp_agt                     axi_inp_agent               -     @500 
      inp_drv                   axi_driver                  -     @1030
        rd_prt                  uvm_seq_item_pull_port      -     @1056
        rsp_port                uvm_analysis_port           -     @1047
        seq_item_port           uvm_seq_item_pull_port      -     @1038
      inp_mon                   axi_inp_monitor             -     @758 
        inp_monitor_port_read   uvm_analysis_port           -     @775 
        inp_monitor_port_write  uvm_analysis_port           -     @766 
      rd_sqr                    axi_sequencer               -     @907 
        rsp_export              uvm_analysis_export         -     @915 
        seq_item_export         uvm_seq_item_pull_imp       -     @1021
        arbitration_queue       array                       0     -    
        lock_queue              array                       0     -    
        num_last_reqs           integral                    32    'd1  
        num_last_rsps           integral                    32    'd1  
      wr_sqr                    axi_sequencer               -     @784 
        rsp_export              uvm_analysis_export         -     @792 
        seq_item_export         uvm_seq_item_pull_imp       -     @898 
        arbitration_queue       array                       0     -    
        lock_queue              array                       0     -    
        num_last_reqs           integral                    32    'd1  
        num_last_rsps           integral                    32    'd1  
    op_agt                      axi_op_agent                -     @508 
      op_mon                    axi_op_monitor              -     @1084
        op_m_port_read          uvm_analysis_port           -     @1101
        op_m_port_write         uvm_analysis_port           -     @1092
    scb                         axi_scoreboard              -     @516 
      ip_mon_fifo_read          uvm_tlm_analysis_fifo #(T)  -     @577 
        analysis_export         uvm_analysis_imp            -     @621 
        get_ap                  uvm_analysis_port           -     @612 
        get_peek_export         uvm_get_peek_imp            -     @594 
        put_ap                  uvm_analysis_port           -     @603 
        put_export              uvm_put_imp                 -     @585 
      ip_mon_fifo_write         uvm_tlm_analysis_fifo #(T)  -     @524 
        analysis_export         uvm_analysis_imp            -     @568 
        get_ap                  uvm_analysis_port           -     @559 
        get_peek_export         uvm_get_peek_imp            -     @541 
        put_ap                  uvm_analysis_port           -     @550 
        put_export              uvm_put_imp                 -     @532 
      op_mon_fifo_read          uvm_tlm_analysis_fifo #(T)  -     @683 
        analysis_export         uvm_analysis_imp            -     @727 
        get_ap                  uvm_analysis_port           -     @718 
        get_peek_export         uvm_get_peek_imp            -     @700 
        put_ap                  uvm_analysis_port           -     @709 
        put_export              uvm_put_imp                 -     @691 
      op_mon_fifo_write         uvm_tlm_analysis_fifo #(T)  -     @630 
        analysis_export         uvm_analysis_imp            -     @674 
        get_ap                  uvm_analysis_port           -     @665 
        get_peek_export         uvm_get_peek_imp            -     @647 
        put_ap                  uvm_analysis_port           -     @656 
        put_export              uvm_put_imp                 -     @638 
    sub                         axi_subscriber              -     @736 
      analysis_imp              uvm_analysis_imp            -     @744 
-----------------------------------------------------------------------

UVM_INFO axi_driver.sv(30) @ 0: uvm_test_top.env.inp_agt.inp_drv [DRV] Sequence Body started
UVM_INFO axi_driver.sv(111) @ 45: uvm_test_top.env.inp_agt.inp_drv [AXI_AW] AWADDR=34 AWPROT=101 AWVALID=1 AWREADY=1
UVM_INFO axi_inp_monitor.sv(64) @ 55: uvm_test_top.env.inp_agt.inp_mon [AXI_AW] AWADDR=34 AWPROT=101 AWVALID=1 AWREADY=1
UVM_INFO axi_op_monitor.sv(64) @ 55: uvm_test_top.env.op_agt.op_mon [OP_AW] AWVALID=1 AWREADY=1 AWADDR=34 AWPROT=101
UVM_INFO axi_driver.sv(129) @ 75: uvm_test_top.env.inp_agt.inp_drv [AXI_W] WDATA=2b095ad6 WSTRB=f WVALID=1 WREADY=1
UVM_INFO axi_inp_monitor.sv(73) @ 85: uvm_test_top.env.inp_agt.inp_mon [AXI_W] WDATA=2b095ad6 WSTRB=f WVALID=1 WREADY=1
UVM_INFO axi_op_monitor.sv(73) @ 85: uvm_test_top.env.op_agt.op_mon [OP_W] WVALID=1 WREADY=1 WDATA=2b095ad6 WSTRB=f
reg_file[0] = 00000000
reg_file[1] = 00000000
reg_file[2] = 00000000
reg_file[3] = 00000000
reg_file[4] = 00000000
reg_file[5] = 00000000
reg_file[6] = 00000000
reg_file[7] = 00000000
reg_file[8] = 00000000
reg_file[9] = 00000000
reg_file[10] = 00000000
reg_file[11] = 00000000
reg_file[12] = 00000000
reg_file[13] = 2b095ad6
reg_file[14] = 00000000
reg_file[15] = 00000000
UVM_INFO axi_driver.sv(145) @ 105: uvm_test_top.env.inp_agt.inp_drv [AXI_B] BREADY=1 BVALID=1 BRESP=0
UVM_INFO axi_inp_monitor.sv(81) @ 115: uvm_test_top.env.inp_agt.inp_mon [AXI_B] BREADY=1 BRESP=0 BVALID=1
UVM_INFO axi_subscriber.sv(158) @ 115: uvm_test_top.env.sub [sub] [DRIVER]:INPUT RECIEVED
UVM_INFO axi_op_monitor.sv(81) @ 115: uvm_test_top.env.op_agt.op_mon [OP_B] BVALID=1 BREADY=1 BRESP=0
UVM_INFO axi_scoreboard.sv(42) @ 115: uvm_test_top.env.scb [SCB] f
UVM_INFO axi_scoreboard.sv(105) @ 115: uvm_test_top.env.scb [SCB] WRITE ADDRESS PASS: Exp_AWADDR=34 Actual_AWADDR=34
UVM_INFO axi_scoreboard.sv(110) @ 115: uvm_test_top.env.scb [SCB] WRITE DATA PASS: Exp_WDATA=2b095ad6 Actual_WDATA=2b095ad6
UVM_INFO axi_scoreboard.sv(115) @ 115: uvm_test_top.env.scb [SCB] WRITE WSTRB PASS: Exp_WSTRB=f Actual_WSTRB=f
UVM_INFO axi_scoreboard.sv(120) @ 115: uvm_test_top.env.scb [SCB] WRITE BRESP PASS: Exp_BRESP=0 Actual_BRESP=0
UVM_INFO axi_driver.sv(111) @ 155: uvm_test_top.env.inp_agt.inp_drv [AXI_AW] AWADDR=18 AWPROT=0 AWVALID=1 AWREADY=1
UVM_INFO axi_inp_monitor.sv(64) @ 165: uvm_test_top.env.inp_agt.inp_mon [AXI_AW] AWADDR=18 AWPROT=0 AWVALID=1 AWREADY=1
UVM_INFO axi_op_monitor.sv(64) @ 165: uvm_test_top.env.op_agt.op_mon [OP_AW] AWVALID=1 AWREADY=1 AWADDR=18 AWPROT=0
UVM_INFO axi_driver.sv(129) @ 185: uvm_test_top.env.inp_agt.inp_drv [AXI_W] WDATA=66dcf82a WSTRB=3 WVALID=1 WREADY=1
UVM_INFO axi_inp_monitor.sv(73) @ 195: uvm_test_top.env.inp_agt.inp_mon [AXI_W] WDATA=66dcf82a WSTRB=3 WVALID=1 WREADY=1
UVM_INFO axi_op_monitor.sv(73) @ 195: uvm_test_top.env.op_agt.op_mon [OP_W] WVALID=1 WREADY=1 WDATA=66dcf82a WSTRB=3
reg_file[0] = 00000000
reg_file[1] = 00000000
reg_file[2] = 00000000
reg_file[3] = 00000000
reg_file[4] = 00000000
reg_file[5] = 00000000
reg_file[6] = 0000f82a
reg_file[7] = 00000000
reg_file[8] = 00000000
reg_file[9] = 00000000
reg_file[10] = 00000000
reg_file[11] = 00000000
reg_file[12] = 00000000
reg_file[13] = 00000000
reg_file[14] = 00000000
reg_file[15] = 00000000
UVM_INFO axi_driver.sv(145) @ 215: uvm_test_top.env.inp_agt.inp_drv [AXI_B] BREADY=1 BVALID=1 BRESP=0
UVM_INFO axi_inp_monitor.sv(81) @ 225: uvm_test_top.env.inp_agt.inp_mon [AXI_B] BREADY=1 BRESP=0 BVALID=1
UVM_INFO axi_subscriber.sv(158) @ 225: uvm_test_top.env.sub [sub] [DRIVER]:INPUT RECIEVED
UVM_INFO axi_op_monitor.sv(81) @ 225: uvm_test_top.env.op_agt.op_mon [OP_B] BVALID=1 BREADY=1 BRESP=0
UVM_INFO axi_scoreboard.sv(42) @ 225: uvm_test_top.env.scb [SCB] 3
UVM_INFO axi_scoreboard.sv(105) @ 225: uvm_test_top.env.scb [SCB] WRITE ADDRESS PASS: Exp_AWADDR=18 Actual_AWADDR=18
UVM_INFO axi_scoreboard.sv(110) @ 225: uvm_test_top.env.scb [SCB] WRITE DATA PASS: Exp_WDATA=66dcf82a Actual_WDATA=66dcf82a
UVM_INFO axi_scoreboard.sv(115) @ 225: uvm_test_top.env.scb [SCB] WRITE WSTRB PASS: Exp_WSTRB=3 Actual_WSTRB=3
UVM_INFO axi_scoreboard.sv(120) @ 225: uvm_test_top.env.scb [SCB] WRITE BRESP PASS: Exp_BRESP=0 Actual_BRESP=0
UVM_INFO axi_driver.sv(111) @ 245: uvm_test_top.env.inp_agt.inp_drv [AXI_AW] AWADDR=8 AWPROT=100 AWVALID=1 AWREADY=1
UVM_INFO axi_inp_monitor.sv(64) @ 255: uvm_test_top.env.inp_agt.inp_mon [AXI_AW] AWADDR=8 AWPROT=100 AWVALID=1 AWREADY=1
UVM_INFO axi_op_monitor.sv(64) @ 255: uvm_test_top.env.op_agt.op_mon [OP_AW] AWVALID=1 AWREADY=1 AWADDR=8 AWPROT=100
UVM_INFO axi_driver.sv(129) @ 275: uvm_test_top.env.inp_agt.inp_drv [AXI_W] WDATA=13e06585 WSTRB=0 WVALID=1 WREADY=1
UVM_INFO axi_inp_monitor.sv(73) @ 285: uvm_test_top.env.inp_agt.inp_mon [AXI_W] WDATA=13e06585 WSTRB=0 WVALID=1 WREADY=1
UVM_INFO axi_op_monitor.sv(73) @ 285: uvm_test_top.env.op_agt.op_mon [OP_W] WVALID=1 WREADY=1 WDATA=13e06585 WSTRB=0
reg_file[0] = 00000000
reg_file[1] = 00000000
reg_file[2] = 00000000
reg_file[3] = 00000000
reg_file[4] = 00000000
reg_file[5] = 00000000
reg_file[6] = 0000f82a
reg_file[7] = 00000000
reg_file[8] = 00000000
reg_file[9] = 00000000
reg_file[10] = 00000000
reg_file[11] = 00000000
reg_file[12] = 00000000
reg_file[13] = 00000000
reg_file[14] = 00000000
reg_file[15] = 00000000
UVM_INFO axi_driver.sv(145) @ 305: uvm_test_top.env.inp_agt.inp_drv [AXI_B] BREADY=1 BVALID=1 BRESP=0
UVM_INFO axi_inp_monitor.sv(81) @ 315: uvm_test_top.env.inp_agt.inp_mon [AXI_B] BREADY=1 BRESP=0 BVALID=1
UVM_INFO axi_subscriber.sv(158) @ 315: uvm_test_top.env.sub [sub] [DRIVER]:INPUT RECIEVED
UVM_INFO axi_op_monitor.sv(81) @ 315: uvm_test_top.env.op_agt.op_mon [OP_B] BVALID=1 BREADY=1 BRESP=0
UVM_INFO axi_scoreboard.sv(42) @ 315: uvm_test_top.env.scb [SCB] 0
UVM_INFO axi_scoreboard.sv(105) @ 315: uvm_test_top.env.scb [SCB] WRITE ADDRESS PASS: Exp_AWADDR=8 Actual_AWADDR=8
UVM_INFO axi_scoreboard.sv(110) @ 315: uvm_test_top.env.scb [SCB] WRITE DATA PASS: Exp_WDATA=13e06585 Actual_WDATA=13e06585
UVM_INFO axi_scoreboard.sv(115) @ 315: uvm_test_top.env.scb [SCB] WRITE WSTRB PASS: Exp_WSTRB=0 Actual_WSTRB=0
UVM_INFO axi_scoreboard.sv(120) @ 315: uvm_test_top.env.scb [SCB] WRITE BRESP PASS: Exp_BRESP=0 Actual_BRESP=0
UVM_INFO axi_driver.sv(111) @ 335: uvm_test_top.env.inp_agt.inp_drv [AXI_AW] AWADDR=34 AWPROT=0 AWVALID=1 AWREADY=1
UVM_INFO axi_inp_monitor.sv(64) @ 345: uvm_test_top.env.inp_agt.inp_mon [AXI_AW] AWADDR=34 AWPROT=0 AWVALID=1 AWREADY=1
UVM_INFO axi_op_monitor.sv(64) @ 345: uvm_test_top.env.op_agt.op_mon [OP_AW] AWVALID=1 AWREADY=1 AWADDR=34 AWPROT=0
UVM_INFO axi_driver.sv(129) @ 365: uvm_test_top.env.inp_agt.inp_drv [AXI_W] WDATA=2fc6de72 WSTRB=7 WVALID=1 WREADY=1
UVM_INFO axi_inp_monitor.sv(73) @ 375: uvm_test_top.env.inp_agt.inp_mon [AXI_W] WDATA=2fc6de72 WSTRB=7 WVALID=1 WREADY=1
UVM_INFO axi_op_monitor.sv(73) @ 375: uvm_test_top.env.op_agt.op_mon [OP_W] WVALID=1 WREADY=1 WDATA=2fc6de72 WSTRB=7
reg_file[0] = 00000000
reg_file[1] = 00000000
reg_file[2] = 00000000
reg_file[3] = 00000000
reg_file[4] = 00000000
reg_file[5] = 00000000
reg_file[6] = 0000f82a
reg_file[7] = 00000000
reg_file[8] = 00000000
reg_file[9] = 00000000
reg_file[10] = 00000000
reg_file[11] = 00000000
reg_file[12] = 00000000
reg_file[13] = 00c6de72
reg_file[14] = 00000000
reg_file[15] = 00000000
UVM_INFO axi_driver.sv(145) @ 395: uvm_test_top.env.inp_agt.inp_drv [AXI_B] BREADY=1 BVALID=1 BRESP=0
UVM_INFO axi_inp_monitor.sv(81) @ 405: uvm_test_top.env.inp_agt.inp_mon [AXI_B] BREADY=1 BRESP=0 BVALID=1
UVM_INFO axi_subscriber.sv(158) @ 405: uvm_test_top.env.sub [sub] [DRIVER]:INPUT RECIEVED
UVM_INFO axi_op_monitor.sv(81) @ 405: uvm_test_top.env.op_agt.op_mon [OP_B] BVALID=1 BREADY=1 BRESP=0
UVM_INFO axi_scoreboard.sv(42) @ 405: uvm_test_top.env.scb [SCB] 7
UVM_INFO axi_scoreboard.sv(105) @ 405: uvm_test_top.env.scb [SCB] WRITE ADDRESS PASS: Exp_AWADDR=34 Actual_AWADDR=34
UVM_INFO axi_scoreboard.sv(110) @ 405: uvm_test_top.env.scb [SCB] WRITE DATA PASS: Exp_WDATA=2fc6de72 Actual_WDATA=2fc6de72
UVM_INFO axi_scoreboard.sv(115) @ 405: uvm_test_top.env.scb [SCB] WRITE WSTRB PASS: Exp_WSTRB=7 Actual_WSTRB=7
UVM_INFO axi_scoreboard.sv(120) @ 405: uvm_test_top.env.scb [SCB] WRITE BRESP PASS: Exp_BRESP=0 Actual_BRESP=0
UVM_INFO axi_driver.sv(111) @ 425: uvm_test_top.env.inp_agt.inp_drv [AXI_AW] AWADDR=8 AWPROT=11 AWVALID=1 AWREADY=1
UVM_INFO axi_inp_monitor.sv(64) @ 435: uvm_test_top.env.inp_agt.inp_mon [AXI_AW] AWADDR=8 AWPROT=11 AWVALID=1 AWREADY=1
UVM_INFO axi_op_monitor.sv(64) @ 435: uvm_test_top.env.op_agt.op_mon [OP_AW] AWVALID=1 AWREADY=1 AWADDR=8 AWPROT=11
UVM_INFO axi_driver.sv(129) @ 455: uvm_test_top.env.inp_agt.inp_drv [AXI_W] WDATA=35735187 WSTRB=3 WVALID=1 WREADY=1
UVM_INFO axi_inp_monitor.sv(73) @ 465: uvm_test_top.env.inp_agt.inp_mon [AXI_W] WDATA=35735187 WSTRB=3 WVALID=1 WREADY=1
UVM_INFO axi_op_monitor.sv(73) @ 465: uvm_test_top.env.op_agt.op_mon [OP_W] WVALID=1 WREADY=1 WDATA=35735187 WSTRB=3
reg_file[0] = 00000000
reg_file[1] = 00000000
reg_file[2] = 00005187
reg_file[3] = 00000000
reg_file[4] = 00000000
reg_file[5] = 00000000
reg_file[6] = 0000f82a
reg_file[7] = 00000000
reg_file[8] = 00000000
reg_file[9] = 00000000
reg_file[10] = 00000000
reg_file[11] = 00000000
reg_file[12] = 00000000
reg_file[13] = 00c6de72
reg_file[14] = 00000000
reg_file[15] = 00000000
UVM_INFO axi_driver.sv(145) @ 485: uvm_test_top.env.inp_agt.inp_drv [AXI_B] BREADY=1 BVALID=1 BRESP=0
UVM_INFO axi_inp_monitor.sv(81) @ 495: uvm_test_top.env.inp_agt.inp_mon [AXI_B] BREADY=1 BRESP=0 BVALID=1
UVM_INFO axi_subscriber.sv(158) @ 495: uvm_test_top.env.sub [sub] [DRIVER]:INPUT RECIEVED
UVM_INFO axi_op_monitor.sv(81) @ 495: uvm_test_top.env.op_agt.op_mon [OP_B] BVALID=1 BREADY=1 BRESP=0
UVM_INFO axi_scoreboard.sv(42) @ 495: uvm_test_top.env.scb [SCB] 3
UVM_INFO axi_scoreboard.sv(105) @ 495: uvm_test_top.env.scb [SCB] WRITE ADDRESS PASS: Exp_AWADDR=8 Actual_AWADDR=8
UVM_INFO axi_scoreboard.sv(110) @ 495: uvm_test_top.env.scb [SCB] WRITE DATA PASS: Exp_WDATA=35735187 Actual_WDATA=35735187
UVM_INFO axi_scoreboard.sv(115) @ 495: uvm_test_top.env.scb [SCB] WRITE WSTRB PASS: Exp_WSTRB=3 Actual_WSTRB=3
UVM_INFO axi_scoreboard.sv(120) @ 495: uvm_test_top.env.scb [SCB] WRITE BRESP PASS: Exp_BRESP=0 Actual_BRESP=0
UVM_INFO axi_driver.sv(111) @ 515: uvm_test_top.env.inp_agt.inp_drv [AXI_AW] AWADDR=0 AWPROT=100 AWVALID=1 AWREADY=1
UVM_INFO axi_inp_monitor.sv(64) @ 525: uvm_test_top.env.inp_agt.inp_mon [AXI_AW] AWADDR=0 AWPROT=100 AWVALID=1 AWREADY=1
UVM_INFO axi_op_monitor.sv(64) @ 525: uvm_test_top.env.op_agt.op_mon [OP_AW] AWVALID=1 AWREADY=1 AWADDR=0 AWPROT=100
UVM_INFO axi_driver.sv(129) @ 545: uvm_test_top.env.inp_agt.inp_drv [AXI_W] WDATA=cc804f75 WSTRB=c WVALID=1 WREADY=1
UVM_INFO axi_inp_monitor.sv(73) @ 555: uvm_test_top.env.inp_agt.inp_mon [AXI_W] WDATA=cc804f75 WSTRB=c WVALID=1 WREADY=1
UVM_INFO axi_op_monitor.sv(73) @ 555: uvm_test_top.env.op_agt.op_mon [OP_W] WVALID=1 WREADY=1 WDATA=cc804f75 WSTRB=c
reg_file[0] = cc800000
reg_file[1] = 00000000
reg_file[2] = 00005187
reg_file[3] = 00000000
reg_file[4] = 00000000
reg_file[5] = 00000000
reg_file[6] = 0000f82a
reg_file[7] = 00000000
reg_file[8] = 00000000
reg_file[9] = 00000000
reg_file[10] = 00000000
reg_file[11] = 00000000
reg_file[12] = 00000000
reg_file[13] = 00c6de72
reg_file[14] = 00000000
reg_file[15] = 00000000
UVM_INFO axi_driver.sv(145) @ 575: uvm_test_top.env.inp_agt.inp_drv [AXI_B] BREADY=1 BVALID=1 BRESP=0
UVM_INFO axi_inp_monitor.sv(81) @ 585: uvm_test_top.env.inp_agt.inp_mon [AXI_B] BREADY=1 BRESP=0 BVALID=1
UVM_INFO axi_subscriber.sv(158) @ 585: uvm_test_top.env.sub [sub] [DRIVER]:INPUT RECIEVED
UVM_INFO axi_op_monitor.sv(81) @ 585: uvm_test_top.env.op_agt.op_mon [OP_B] BVALID=1 BREADY=1 BRESP=0
UVM_INFO axi_scoreboard.sv(42) @ 585: uvm_test_top.env.scb [SCB] c
UVM_INFO axi_scoreboard.sv(105) @ 585: uvm_test_top.env.scb [SCB] WRITE ADDRESS PASS: Exp_AWADDR=0 Actual_AWADDR=0
UVM_INFO axi_scoreboard.sv(110) @ 585: uvm_test_top.env.scb [SCB] WRITE DATA PASS: Exp_WDATA=cc804f75 Actual_WDATA=cc804f75
UVM_INFO axi_scoreboard.sv(115) @ 585: uvm_test_top.env.scb [SCB] WRITE WSTRB PASS: Exp_WSTRB=c Actual_WSTRB=c
UVM_INFO axi_scoreboard.sv(120) @ 585: uvm_test_top.env.scb [SCB] WRITE BRESP PASS: Exp_BRESP=0 Actual_BRESP=0
UVM_INFO axi_driver.sv(111) @ 605: uvm_test_top.env.inp_agt.inp_drv [AXI_AW] AWADDR=28 AWPROT=100 AWVALID=1 AWREADY=1
UVM_INFO axi_inp_monitor.sv(64) @ 615: uvm_test_top.env.inp_agt.inp_mon [AXI_AW] AWADDR=28 AWPROT=100 AWVALID=1 AWREADY=1
UVM_INFO axi_op_monitor.sv(64) @ 615: uvm_test_top.env.op_agt.op_mon [OP_AW] AWVALID=1 AWREADY=1 AWADDR=28 AWPROT=100
UVM_INFO axi_driver.sv(129) @ 635: uvm_test_top.env.inp_agt.inp_drv [AXI_W] WDATA=7e88dac5 WSTRB=b WVALID=1 WREADY=1
UVM_INFO axi_inp_monitor.sv(73) @ 645: uvm_test_top.env.inp_agt.inp_mon [AXI_W] WDATA=7e88dac5 WSTRB=b WVALID=1 WREADY=1
UVM_INFO axi_op_monitor.sv(73) @ 645: uvm_test_top.env.op_agt.op_mon [OP_W] WVALID=1 WREADY=1 WDATA=7e88dac5 WSTRB=b
reg_file[0] = cc800000
reg_file[1] = 00000000
reg_file[2] = 00005187
reg_file[3] = 00000000
reg_file[4] = 00000000
reg_file[5] = 00000000
reg_file[6] = 0000f82a
reg_file[7] = 00000000
reg_file[8] = 00000000
reg_file[9] = 00000000
reg_file[10] = 00000000
reg_file[11] = 00000000
reg_file[12] = 00000000
reg_file[13] = 00c6de72
reg_file[14] = 00000000
reg_file[15] = 00000000
UVM_INFO axi_driver.sv(145) @ 665: uvm_test_top.env.inp_agt.inp_drv [AXI_B] BREADY=1 BVALID=1 BRESP=10
UVM_INFO axi_inp_monitor.sv(81) @ 675: uvm_test_top.env.inp_agt.inp_mon [AXI_B] BREADY=1 BRESP=10 BVALID=1
UVM_INFO axi_subscriber.sv(158) @ 675: uvm_test_top.env.sub [sub] [DRIVER]:INPUT RECIEVED
UVM_INFO axi_op_monitor.sv(81) @ 675: uvm_test_top.env.op_agt.op_mon [OP_B] BVALID=1 BREADY=1 BRESP=10
UVM_INFO axi_scoreboard.sv(42) @ 675: uvm_test_top.env.scb [SCB] b
UVM_INFO axi_scoreboard.sv(105) @ 675: uvm_test_top.env.scb [SCB] WRITE ADDRESS PASS: Exp_AWADDR=28 Actual_AWADDR=28
UVM_INFO axi_scoreboard.sv(110) @ 675: uvm_test_top.env.scb [SCB] WRITE DATA PASS: Exp_WDATA=7e88dac5 Actual_WDATA=7e88dac5
UVM_INFO axi_scoreboard.sv(115) @ 675: uvm_test_top.env.scb [SCB] WRITE WSTRB PASS: Exp_WSTRB=b Actual_WSTRB=b
UVM_INFO axi_scoreboard.sv(120) @ 675: uvm_test_top.env.scb [SCB] WRITE BRESP PASS: Exp_BRESP=10 Actual_BRESP=10
UVM_INFO axi_driver.sv(111) @ 695: uvm_test_top.env.inp_agt.inp_drv [AXI_AW] AWADDR=4 AWPROT=1 AWVALID=1 AWREADY=1
UVM_INFO axi_inp_monitor.sv(64) @ 705: uvm_test_top.env.inp_agt.inp_mon [AXI_AW] AWADDR=4 AWPROT=1 AWVALID=1 AWREADY=1
UVM_INFO axi_op_monitor.sv(64) @ 705: uvm_test_top.env.op_agt.op_mon [OP_AW] AWVALID=1 AWREADY=1 AWADDR=4 AWPROT=1
UVM_INFO axi_driver.sv(129) @ 725: uvm_test_top.env.inp_agt.inp_drv [AXI_W] WDATA=2cd10b72 WSTRB=8 WVALID=1 WREADY=1
UVM_INFO axi_inp_monitor.sv(73) @ 735: uvm_test_top.env.inp_agt.inp_mon [AXI_W] WDATA=2cd10b72 WSTRB=8 WVALID=1 WREADY=1
UVM_INFO axi_op_monitor.sv(73) @ 735: uvm_test_top.env.op_agt.op_mon [OP_W] WVALID=1 WREADY=1 WDATA=2cd10b72 WSTRB=8
reg_file[0] = cc800000
reg_file[1] = 2c000000
reg_file[2] = 00005187
reg_file[3] = 00000000
reg_file[4] = 00000000
reg_file[5] = 00000000
reg_file[6] = 0000f82a
reg_file[7] = 00000000
reg_file[8] = 00000000
reg_file[9] = 00000000
reg_file[10] = 00000000
reg_file[11] = 00000000
reg_file[12] = 00000000
reg_file[13] = 00c6de72
reg_file[14] = 00000000
reg_file[15] = 00000000
UVM_INFO axi_driver.sv(145) @ 755: uvm_test_top.env.inp_agt.inp_drv [AXI_B] BREADY=1 BVALID=1 BRESP=0
UVM_INFO axi_inp_monitor.sv(81) @ 765: uvm_test_top.env.inp_agt.inp_mon [AXI_B] BREADY=1 BRESP=0 BVALID=1
UVM_INFO axi_subscriber.sv(158) @ 765: uvm_test_top.env.sub [sub] [DRIVER]:INPUT RECIEVED
UVM_INFO axi_op_monitor.sv(81) @ 765: uvm_test_top.env.op_agt.op_mon [OP_B] BVALID=1 BREADY=1 BRESP=0
UVM_INFO axi_scoreboard.sv(42) @ 765: uvm_test_top.env.scb [SCB] 8
UVM_INFO axi_scoreboard.sv(105) @ 765: uvm_test_top.env.scb [SCB] WRITE ADDRESS PASS: Exp_AWADDR=4 Actual_AWADDR=4
UVM_INFO axi_scoreboard.sv(110) @ 765: uvm_test_top.env.scb [SCB] WRITE DATA PASS: Exp_WDATA=2cd10b72 Actual_WDATA=2cd10b72
UVM_INFO axi_scoreboard.sv(115) @ 765: uvm_test_top.env.scb [SCB] WRITE WSTRB PASS: Exp_WSTRB=8 Actual_WSTRB=8
UVM_INFO axi_scoreboard.sv(120) @ 765: uvm_test_top.env.scb [SCB] WRITE BRESP PASS: Exp_BRESP=0 Actual_BRESP=0
UVM_INFO axi_driver.sv(111) @ 785: uvm_test_top.env.inp_agt.inp_drv [AXI_AW] AWADDR=38 AWPROT=101 AWVALID=1 AWREADY=1
UVM_INFO axi_inp_monitor.sv(64) @ 795: uvm_test_top.env.inp_agt.inp_mon [AXI_AW] AWADDR=38 AWPROT=101 AWVALID=1 AWREADY=1
UVM_INFO axi_op_monitor.sv(64) @ 795: uvm_test_top.env.op_agt.op_mon [OP_AW] AWVALID=1 AWREADY=1 AWADDR=38 AWPROT=101
UVM_INFO axi_driver.sv(129) @ 815: uvm_test_top.env.inp_agt.inp_drv [AXI_W] WDATA=8c4abba2 WSTRB=7 WVALID=1 WREADY=1
UVM_INFO axi_inp_monitor.sv(73) @ 825: uvm_test_top.env.inp_agt.inp_mon [AXI_W] WDATA=8c4abba2 WSTRB=7 WVALID=1 WREADY=1
UVM_INFO axi_op_monitor.sv(73) @ 825: uvm_test_top.env.op_agt.op_mon [OP_W] WVALID=1 WREADY=1 WDATA=8c4abba2 WSTRB=7
reg_file[0] = cc800000
reg_file[1] = 2c000000
reg_file[2] = 00005187
reg_file[3] = 00000000
reg_file[4] = 00000000
reg_file[5] = 00000000
reg_file[6] = 0000f82a
reg_file[7] = 00000000
reg_file[8] = 00000000
reg_file[9] = 00000000
reg_file[10] = 00000000
reg_file[11] = 00000000
reg_file[12] = 00000000
reg_file[13] = 00c6de72
reg_file[14] = 004abba2
reg_file[15] = 00000000
UVM_INFO axi_driver.sv(145) @ 845: uvm_test_top.env.inp_agt.inp_drv [AXI_B] BREADY=1 BVALID=1 BRESP=0
UVM_INFO axi_inp_monitor.sv(81) @ 855: uvm_test_top.env.inp_agt.inp_mon [AXI_B] BREADY=1 BRESP=0 BVALID=1
UVM_INFO axi_subscriber.sv(158) @ 855: uvm_test_top.env.sub [sub] [DRIVER]:INPUT RECIEVED
UVM_INFO axi_op_monitor.sv(81) @ 855: uvm_test_top.env.op_agt.op_mon [OP_B] BVALID=1 BREADY=1 BRESP=0
UVM_INFO axi_scoreboard.sv(42) @ 855: uvm_test_top.env.scb [SCB] 7
UVM_INFO axi_scoreboard.sv(105) @ 855: uvm_test_top.env.scb [SCB] WRITE ADDRESS PASS: Exp_AWADDR=38 Actual_AWADDR=38
UVM_INFO axi_scoreboard.sv(110) @ 855: uvm_test_top.env.scb [SCB] WRITE DATA PASS: Exp_WDATA=8c4abba2 Actual_WDATA=8c4abba2
UVM_INFO axi_scoreboard.sv(115) @ 855: uvm_test_top.env.scb [SCB] WRITE WSTRB PASS: Exp_WSTRB=7 Actual_WSTRB=7
UVM_INFO axi_scoreboard.sv(120) @ 855: uvm_test_top.env.scb [SCB] WRITE BRESP PASS: Exp_BRESP=0 Actual_BRESP=0
UVM_INFO axi_driver.sv(111) @ 875: uvm_test_top.env.inp_agt.inp_drv [AXI_AW] AWADDR=20 AWPROT=1 AWVALID=1 AWREADY=1
UVM_INFO axi_inp_monitor.sv(64) @ 885: uvm_test_top.env.inp_agt.inp_mon [AXI_AW] AWADDR=20 AWPROT=1 AWVALID=1 AWREADY=1
UVM_INFO axi_op_monitor.sv(64) @ 885: uvm_test_top.env.op_agt.op_mon [OP_AW] AWVALID=1 AWREADY=1 AWADDR=20 AWPROT=1
UVM_INFO axi_driver.sv(129) @ 905: uvm_test_top.env.inp_agt.inp_drv [AXI_W] WDATA=9c6643b4 WSTRB=9 WVALID=1 WREADY=1
UVM_INFO axi_inp_monitor.sv(73) @ 915: uvm_test_top.env.inp_agt.inp_mon [AXI_W] WDATA=9c6643b4 WSTRB=9 WVALID=1 WREADY=1
UVM_INFO axi_op_monitor.sv(73) @ 915: uvm_test_top.env.op_agt.op_mon [OP_W] WVALID=1 WREADY=1 WDATA=9c6643b4 WSTRB=9
reg_file[0] = cc800000
reg_file[1] = 2c000000
reg_file[2] = 00005187
reg_file[3] = 00000000
reg_file[4] = 00000000
reg_file[5] = 00000000
reg_file[6] = 0000f82a
reg_file[7] = 00000000
reg_file[8] = 9c0000b4
reg_file[9] = 00000000
reg_file[10] = 00000000
reg_file[11] = 00000000
reg_file[12] = 00000000
reg_file[13] = 00c6de72
reg_file[14] = 004abba2
reg_file[15] = 00000000
UVM_INFO axi_driver.sv(145) @ 935: uvm_test_top.env.inp_agt.inp_drv [AXI_B] BREADY=1 BVALID=1 BRESP=0
UVM_INFO axi_inp_monitor.sv(81) @ 945: uvm_test_top.env.inp_agt.inp_mon [AXI_B] BREADY=1 BRESP=0 BVALID=1
UVM_INFO axi_subscriber.sv(158) @ 945: uvm_test_top.env.sub [sub] [DRIVER]:INPUT RECIEVED
UVM_INFO axi_op_monitor.sv(81) @ 945: uvm_test_top.env.op_agt.op_mon [OP_B] BVALID=1 BREADY=1 BRESP=0
UVM_INFO axi_scoreboard.sv(42) @ 945: uvm_test_top.env.scb [SCB] 9
UVM_INFO axi_scoreboard.sv(105) @ 945: uvm_test_top.env.scb [SCB] WRITE ADDRESS PASS: Exp_AWADDR=20 Actual_AWADDR=20
UVM_INFO axi_scoreboard.sv(110) @ 945: uvm_test_top.env.scb [SCB] WRITE DATA PASS: Exp_WDATA=9c6643b4 Actual_WDATA=9c6643b4
UVM_INFO axi_scoreboard.sv(115) @ 945: uvm_test_top.env.scb [SCB] WRITE WSTRB PASS: Exp_WSTRB=9 Actual_WSTRB=9
UVM_INFO axi_scoreboard.sv(120) @ 945: uvm_test_top.env.scb [SCB] WRITE BRESP PASS: Exp_BRESP=0 Actual_BRESP=0
UVM_INFO axi_driver.sv(111) @ 965: uvm_test_top.env.inp_agt.inp_drv [AXI_AW] AWADDR=10 AWPROT=0 AWVALID=1 AWREADY=1
UVM_INFO axi_inp_monitor.sv(64) @ 975: uvm_test_top.env.inp_agt.inp_mon [AXI_AW] AWADDR=10 AWPROT=0 AWVALID=1 AWREADY=1
UVM_INFO axi_op_monitor.sv(64) @ 975: uvm_test_top.env.op_agt.op_mon [OP_AW] AWVALID=1 AWREADY=1 AWADDR=10 AWPROT=0
UVM_INFO axi_driver.sv(129) @ 995: uvm_test_top.env.inp_agt.inp_drv [AXI_W] WDATA=262626b WSTRB=7 WVALID=1 WREADY=1
UVM_INFO axi_inp_monitor.sv(73) @ 1005: uvm_test_top.env.inp_agt.inp_mon [AXI_W] WDATA=262626b WSTRB=7 WVALID=1 WREADY=1
UVM_INFO axi_op_monitor.sv(73) @ 1005: uvm_test_top.env.op_agt.op_mon [OP_W] WVALID=1 WREADY=1 WDATA=262626b WSTRB=7
reg_file[0] = cc800000
reg_file[1] = 2c000000
reg_file[2] = 00005187
reg_file[3] = 00000000
reg_file[4] = 0062626b
reg_file[5] = 00000000
reg_file[6] = 0000f82a
reg_file[7] = 00000000
reg_file[8] = 9c0000b4
reg_file[9] = 00000000
reg_file[10] = 00000000
reg_file[11] = 00000000
reg_file[12] = 00000000
reg_file[13] = 00c6de72
reg_file[14] = 004abba2
reg_file[15] = 00000000
UVM_INFO axi_driver.sv(145) @ 1025: uvm_test_top.env.inp_agt.inp_drv [AXI_B] BREADY=1 BVALID=1 BRESP=0
UVM_INFO axi_inp_monitor.sv(81) @ 1035: uvm_test_top.env.inp_agt.inp_mon [AXI_B] BREADY=1 BRESP=0 BVALID=1
UVM_INFO axi_subscriber.sv(158) @ 1035: uvm_test_top.env.sub [sub] [DRIVER]:INPUT RECIEVED
UVM_INFO axi_op_monitor.sv(81) @ 1035: uvm_test_top.env.op_agt.op_mon [OP_B] BVALID=1 BREADY=1 BRESP=0
UVM_INFO axi_scoreboard.sv(42) @ 1035: uvm_test_top.env.scb [SCB] 7
UVM_INFO axi_scoreboard.sv(105) @ 1035: uvm_test_top.env.scb [SCB] WRITE ADDRESS PASS: Exp_AWADDR=10 Actual_AWADDR=10
UVM_INFO axi_scoreboard.sv(110) @ 1035: uvm_test_top.env.scb [SCB] WRITE DATA PASS: Exp_WDATA=262626b Actual_WDATA=262626b
UVM_INFO axi_scoreboard.sv(115) @ 1035: uvm_test_top.env.scb [SCB] WRITE WSTRB PASS: Exp_WSTRB=7 Actual_WSTRB=7
UVM_INFO axi_scoreboard.sv(120) @ 1035: uvm_test_top.env.scb [SCB] WRITE BRESP PASS: Exp_BRESP=0 Actual_BRESP=0
UVM_INFO axi_driver.sv(111) @ 1055: uvm_test_top.env.inp_agt.inp_drv [AXI_AW] AWADDR=2c AWPROT=0 AWVALID=1 AWREADY=1
UVM_INFO axi_inp_monitor.sv(64) @ 1065: uvm_test_top.env.inp_agt.inp_mon [AXI_AW] AWADDR=2c AWPROT=0 AWVALID=1 AWREADY=1
UVM_INFO axi_op_monitor.sv(64) @ 1065: uvm_test_top.env.op_agt.op_mon [OP_AW] AWVALID=1 AWREADY=1 AWADDR=2c AWPROT=0
UVM_INFO axi_driver.sv(129) @ 1085: uvm_test_top.env.inp_agt.inp_drv [AXI_W] WDATA=d693c195 WSTRB=f WVALID=1 WREADY=1
UVM_INFO axi_inp_monitor.sv(73) @ 1095: uvm_test_top.env.inp_agt.inp_mon [AXI_W] WDATA=d693c195 WSTRB=f WVALID=1 WREADY=1
UVM_INFO axi_op_monitor.sv(73) @ 1095: uvm_test_top.env.op_agt.op_mon [OP_W] WVALID=1 WREADY=1 WDATA=d693c195 WSTRB=f
reg_file[0] = cc800000
reg_file[1] = 2c000000
reg_file[2] = 00005187
reg_file[3] = 00000000
reg_file[4] = 0062626b
reg_file[5] = 00000000
reg_file[6] = 0000f82a
reg_file[7] = 00000000
reg_file[8] = 9c0000b4
reg_file[9] = 00000000
reg_file[10] = 00000000
reg_file[11] = 00000000
reg_file[12] = 00000000
reg_file[13] = 00c6de72
reg_file[14] = 004abba2
reg_file[15] = 00000000
UVM_INFO axi_driver.sv(145) @ 1115: uvm_test_top.env.inp_agt.inp_drv [AXI_B] BREADY=1 BVALID=1 BRESP=10
UVM_INFO axi_inp_monitor.sv(81) @ 1125: uvm_test_top.env.inp_agt.inp_mon [AXI_B] BREADY=1 BRESP=10 BVALID=1
UVM_INFO axi_subscriber.sv(158) @ 1125: uvm_test_top.env.sub [sub] [DRIVER]:INPUT RECIEVED
UVM_INFO axi_op_monitor.sv(81) @ 1125: uvm_test_top.env.op_agt.op_mon [OP_B] BVALID=1 BREADY=1 BRESP=10
UVM_INFO axi_scoreboard.sv(42) @ 1125: uvm_test_top.env.scb [SCB] f
UVM_INFO axi_scoreboard.sv(105) @ 1125: uvm_test_top.env.scb [SCB] WRITE ADDRESS PASS: Exp_AWADDR=2c Actual_AWADDR=2c
UVM_INFO axi_scoreboard.sv(110) @ 1125: uvm_test_top.env.scb [SCB] WRITE DATA PASS: Exp_WDATA=d693c195 Actual_WDATA=d693c195
UVM_INFO axi_scoreboard.sv(115) @ 1125: uvm_test_top.env.scb [SCB] WRITE WSTRB PASS: Exp_WSTRB=f Actual_WSTRB=f
UVM_INFO axi_scoreboard.sv(120) @ 1125: uvm_test_top.env.scb [SCB] WRITE BRESP PASS: Exp_BRESP=10 Actual_BRESP=10
UVM_INFO axi_driver.sv(111) @ 1145: uvm_test_top.env.inp_agt.inp_drv [AXI_AW] AWADDR=2c AWPROT=101 AWVALID=1 AWREADY=1
UVM_INFO axi_inp_monitor.sv(64) @ 1155: uvm_test_top.env.inp_agt.inp_mon [AXI_AW] AWADDR=2c AWPROT=101 AWVALID=1 AWREADY=1
UVM_INFO axi_op_monitor.sv(64) @ 1155: uvm_test_top.env.op_agt.op_mon [OP_AW] AWVALID=1 AWREADY=1 AWADDR=2c AWPROT=101
UVM_INFO axi_driver.sv(129) @ 1175: uvm_test_top.env.inp_agt.inp_drv [AXI_W] WDATA=47dc73ea WSTRB=6 WVALID=1 WREADY=1
UVM_INFO axi_inp_monitor.sv(73) @ 1185: uvm_test_top.env.inp_agt.inp_mon [AXI_W] WDATA=47dc73ea WSTRB=6 WVALID=1 WREADY=1
UVM_INFO axi_op_monitor.sv(73) @ 1185: uvm_test_top.env.op_agt.op_mon [OP_W] WVALID=1 WREADY=1 WDATA=47dc73ea WSTRB=6
reg_file[0] = cc800000
reg_file[1] = 2c000000
reg_file[2] = 00005187
reg_file[3] = 00000000
reg_file[4] = 0062626b
reg_file[5] = 00000000
reg_file[6] = 0000f82a
reg_file[7] = 00000000
reg_file[8] = 9c0000b4
reg_file[9] = 00000000
reg_file[10] = 00000000
reg_file[11] = 00000000
reg_file[12] = 00000000
reg_file[13] = 00c6de72
reg_file[14] = 004abba2
reg_file[15] = 00000000
UVM_INFO axi_driver.sv(145) @ 1205: uvm_test_top.env.inp_agt.inp_drv [AXI_B] BREADY=1 BVALID=1 BRESP=10
UVM_INFO axi_inp_monitor.sv(81) @ 1215: uvm_test_top.env.inp_agt.inp_mon [AXI_B] BREADY=1 BRESP=10 BVALID=1
UVM_INFO axi_subscriber.sv(158) @ 1215: uvm_test_top.env.sub [sub] [DRIVER]:INPUT RECIEVED
UVM_INFO axi_op_monitor.sv(81) @ 1215: uvm_test_top.env.op_agt.op_mon [OP_B] BVALID=1 BREADY=1 BRESP=10
UVM_INFO axi_scoreboard.sv(42) @ 1215: uvm_test_top.env.scb [SCB] 6
UVM_INFO axi_scoreboard.sv(105) @ 1215: uvm_test_top.env.scb [SCB] WRITE ADDRESS PASS: Exp_AWADDR=2c Actual_AWADDR=2c
UVM_INFO axi_scoreboard.sv(110) @ 1215: uvm_test_top.env.scb [SCB] WRITE DATA PASS: Exp_WDATA=47dc73ea Actual_WDATA=47dc73ea
UVM_INFO axi_scoreboard.sv(115) @ 1215: uvm_test_top.env.scb [SCB] WRITE WSTRB PASS: Exp_WSTRB=6 Actual_WSTRB=6
UVM_INFO axi_scoreboard.sv(120) @ 1215: uvm_test_top.env.scb [SCB] WRITE BRESP PASS: Exp_BRESP=10 Actual_BRESP=10
UVM_INFO axi_driver.sv(111) @ 1235: uvm_test_top.env.inp_agt.inp_drv [AXI_AW] AWADDR=c AWPROT=10 AWVALID=1 AWREADY=1
UVM_INFO axi_inp_monitor.sv(64) @ 1245: uvm_test_top.env.inp_agt.inp_mon [AXI_AW] AWADDR=c AWPROT=10 AWVALID=1 AWREADY=1
UVM_INFO axi_op_monitor.sv(64) @ 1245: uvm_test_top.env.op_agt.op_mon [OP_AW] AWVALID=1 AWREADY=1 AWADDR=c AWPROT=10
UVM_INFO axi_driver.sv(129) @ 1265: uvm_test_top.env.inp_agt.inp_drv [AXI_W] WDATA=3cf23472 WSTRB=9 WVALID=1 WREADY=1
UVM_INFO axi_inp_monitor.sv(73) @ 1275: uvm_test_top.env.inp_agt.inp_mon [AXI_W] WDATA=3cf23472 WSTRB=9 WVALID=1 WREADY=1
UVM_INFO axi_op_monitor.sv(73) @ 1275: uvm_test_top.env.op_agt.op_mon [OP_W] WVALID=1 WREADY=1 WDATA=3cf23472 WSTRB=9
reg_file[0] = cc800000
reg_file[1] = 2c000000
reg_file[2] = 00005187
reg_file[3] = 3c000072
reg_file[4] = 0062626b
reg_file[5] = 00000000
reg_file[6] = 0000f82a
reg_file[7] = 00000000
reg_file[8] = 9c0000b4
reg_file[9] = 00000000
reg_file[10] = 00000000
reg_file[11] = 00000000
reg_file[12] = 00000000
reg_file[13] = 00c6de72
reg_file[14] = 004abba2
reg_file[15] = 00000000
UVM_INFO axi_driver.sv(145) @ 1295: uvm_test_top.env.inp_agt.inp_drv [AXI_B] BREADY=1 BVALID=1 BRESP=0
UVM_INFO axi_inp_monitor.sv(81) @ 1305: uvm_test_top.env.inp_agt.inp_mon [AXI_B] BREADY=1 BRESP=0 BVALID=1
UVM_INFO axi_subscriber.sv(158) @ 1305: uvm_test_top.env.sub [sub] [DRIVER]:INPUT RECIEVED
UVM_INFO axi_op_monitor.sv(81) @ 1305: uvm_test_top.env.op_agt.op_mon [OP_B] BVALID=1 BREADY=1 BRESP=0
UVM_INFO axi_scoreboard.sv(42) @ 1305: uvm_test_top.env.scb [SCB] 9
UVM_INFO axi_scoreboard.sv(105) @ 1305: uvm_test_top.env.scb [SCB] WRITE ADDRESS PASS: Exp_AWADDR=c Actual_AWADDR=c
UVM_INFO axi_scoreboard.sv(110) @ 1305: uvm_test_top.env.scb [SCB] WRITE DATA PASS: Exp_WDATA=3cf23472 Actual_WDATA=3cf23472
UVM_INFO axi_scoreboard.sv(115) @ 1305: uvm_test_top.env.scb [SCB] WRITE WSTRB PASS: Exp_WSTRB=9 Actual_WSTRB=9
UVM_INFO axi_scoreboard.sv(120) @ 1305: uvm_test_top.env.scb [SCB] WRITE BRESP PASS: Exp_BRESP=0 Actual_BRESP=0
UVM_INFO axi_driver.sv(111) @ 1325: uvm_test_top.env.inp_agt.inp_drv [AXI_AW] AWADDR=2c AWPROT=1 AWVALID=1 AWREADY=1
UVM_INFO axi_inp_monitor.sv(64) @ 1335: uvm_test_top.env.inp_agt.inp_mon [AXI_AW] AWADDR=2c AWPROT=1 AWVALID=1 AWREADY=1
UVM_INFO axi_op_monitor.sv(64) @ 1335: uvm_test_top.env.op_agt.op_mon [OP_AW] AWVALID=1 AWREADY=1 AWADDR=2c AWPROT=1
UVM_INFO axi_driver.sv(129) @ 1355: uvm_test_top.env.inp_agt.inp_drv [AXI_W] WDATA=df4f51e WSTRB=0 WVALID=1 WREADY=1
UVM_INFO axi_inp_monitor.sv(73) @ 1365: uvm_test_top.env.inp_agt.inp_mon [AXI_W] WDATA=df4f51e WSTRB=0 WVALID=1 WREADY=1
UVM_INFO axi_op_monitor.sv(73) @ 1365: uvm_test_top.env.op_agt.op_mon [OP_W] WVALID=1 WREADY=1 WDATA=df4f51e WSTRB=0
reg_file[0] = cc800000
reg_file[1] = 2c000000
reg_file[2] = 00005187
reg_file[3] = 3c000072
reg_file[4] = 0062626b
reg_file[5] = 00000000
reg_file[6] = 0000f82a
reg_file[7] = 00000000
reg_file[8] = 9c0000b4
reg_file[9] = 00000000
reg_file[10] = 00000000
reg_file[11] = 00000000
reg_file[12] = 00000000
reg_file[13] = 00c6de72
reg_file[14] = 004abba2
reg_file[15] = 00000000
UVM_INFO axi_driver.sv(145) @ 1385: uvm_test_top.env.inp_agt.inp_drv [AXI_B] BREADY=1 BVALID=1 BRESP=10
UVM_INFO axi_inp_monitor.sv(81) @ 1395: uvm_test_top.env.inp_agt.inp_mon [AXI_B] BREADY=1 BRESP=10 BVALID=1
UVM_INFO axi_subscriber.sv(158) @ 1395: uvm_test_top.env.sub [sub] [DRIVER]:INPUT RECIEVED
UVM_INFO axi_op_monitor.sv(81) @ 1395: uvm_test_top.env.op_agt.op_mon [OP_B] BVALID=1 BREADY=1 BRESP=10
UVM_INFO axi_scoreboard.sv(42) @ 1395: uvm_test_top.env.scb [SCB] 0
UVM_INFO axi_scoreboard.sv(105) @ 1395: uvm_test_top.env.scb [SCB] WRITE ADDRESS PASS: Exp_AWADDR=2c Actual_AWADDR=2c
UVM_INFO axi_scoreboard.sv(110) @ 1395: uvm_test_top.env.scb [SCB] WRITE DATA PASS: Exp_WDATA=df4f51e Actual_WDATA=df4f51e
UVM_INFO axi_scoreboard.sv(115) @ 1395: uvm_test_top.env.scb [SCB] WRITE WSTRB PASS: Exp_WSTRB=0 Actual_WSTRB=0
UVM_INFO axi_scoreboard.sv(120) @ 1395: uvm_test_top.env.scb [SCB] WRITE BRESP PASS: Exp_BRESP=10 Actual_BRESP=10
UVM_INFO axi_driver.sv(111) @ 1415: uvm_test_top.env.inp_agt.inp_drv [AXI_AW] AWADDR=28 AWPROT=11 AWVALID=1 AWREADY=1
UVM_INFO axi_inp_monitor.sv(64) @ 1425: uvm_test_top.env.inp_agt.inp_mon [AXI_AW] AWADDR=28 AWPROT=11 AWVALID=1 AWREADY=1
UVM_INFO axi_op_monitor.sv(64) @ 1425: uvm_test_top.env.op_agt.op_mon [OP_AW] AWVALID=1 AWREADY=1 AWADDR=28 AWPROT=11
UVM_INFO axi_driver.sv(129) @ 1445: uvm_test_top.env.inp_agt.inp_drv [AXI_W] WDATA=6e4a22f5 WSTRB=c WVALID=1 WREADY=1
UVM_INFO axi_inp_monitor.sv(73) @ 1455: uvm_test_top.env.inp_agt.inp_mon [AXI_W] WDATA=6e4a22f5 WSTRB=c WVALID=1 WREADY=1
UVM_INFO axi_op_monitor.sv(73) @ 1455: uvm_test_top.env.op_agt.op_mon [OP_W] WVALID=1 WREADY=1 WDATA=6e4a22f5 WSTRB=c
reg_file[0] = cc800000
reg_file[1] = 2c000000
reg_file[2] = 00005187
reg_file[3] = 3c000072
reg_file[4] = 0062626b
reg_file[5] = 00000000
reg_file[6] = 0000f82a
reg_file[7] = 00000000
reg_file[8] = 9c0000b4
reg_file[9] = 00000000
reg_file[10] = 00000000
reg_file[11] = 00000000
reg_file[12] = 00000000
reg_file[13] = 00c6de72
reg_file[14] = 004abba2
reg_file[15] = 00000000
UVM_INFO axi_driver.sv(145) @ 1475: uvm_test_top.env.inp_agt.inp_drv [AXI_B] BREADY=1 BVALID=1 BRESP=10
UVM_INFO axi_inp_monitor.sv(81) @ 1485: uvm_test_top.env.inp_agt.inp_mon [AXI_B] BREADY=1 BRESP=10 BVALID=1
UVM_INFO axi_subscriber.sv(158) @ 1485: uvm_test_top.env.sub [sub] [DRIVER]:INPUT RECIEVED
UVM_INFO axi_op_monitor.sv(81) @ 1485: uvm_test_top.env.op_agt.op_mon [OP_B] BVALID=1 BREADY=1 BRESP=10
UVM_INFO axi_scoreboard.sv(42) @ 1485: uvm_test_top.env.scb [SCB] c
UVM_INFO axi_scoreboard.sv(105) @ 1485: uvm_test_top.env.scb [SCB] WRITE ADDRESS PASS: Exp_AWADDR=28 Actual_AWADDR=28
UVM_INFO axi_scoreboard.sv(110) @ 1485: uvm_test_top.env.scb [SCB] WRITE DATA PASS: Exp_WDATA=6e4a22f5 Actual_WDATA=6e4a22f5
UVM_INFO axi_scoreboard.sv(115) @ 1485: uvm_test_top.env.scb [SCB] WRITE WSTRB PASS: Exp_WSTRB=c Actual_WSTRB=c
UVM_INFO axi_scoreboard.sv(120) @ 1485: uvm_test_top.env.scb [SCB] WRITE BRESP PASS: Exp_BRESP=10 Actual_BRESP=10
UVM_INFO axi_driver.sv(111) @ 1505: uvm_test_top.env.inp_agt.inp_drv [AXI_AW] AWADDR=14 AWPROT=11 AWVALID=1 AWREADY=1
UVM_INFO axi_inp_monitor.sv(64) @ 1515: uvm_test_top.env.inp_agt.inp_mon [AXI_AW] AWADDR=14 AWPROT=11 AWVALID=1 AWREADY=1
UVM_INFO axi_op_monitor.sv(64) @ 1515: uvm_test_top.env.op_agt.op_mon [OP_AW] AWVALID=1 AWREADY=1 AWADDR=14 AWPROT=11
UVM_INFO axi_driver.sv(129) @ 1535: uvm_test_top.env.inp_agt.inp_drv [AXI_W] WDATA=9553340 WSTRB=8 WVALID=1 WREADY=1
UVM_INFO axi_inp_monitor.sv(73) @ 1545: uvm_test_top.env.inp_agt.inp_mon [AXI_W] WDATA=9553340 WSTRB=8 WVALID=1 WREADY=1
UVM_INFO axi_op_monitor.sv(73) @ 1545: uvm_test_top.env.op_agt.op_mon [OP_W] WVALID=1 WREADY=1 WDATA=9553340 WSTRB=8
reg_file[0] = cc800000
reg_file[1] = 2c000000
reg_file[2] = 00005187
reg_file[3] = 3c000072
reg_file[4] = 0062626b
reg_file[5] = 09000000
reg_file[6] = 0000f82a
reg_file[7] = 00000000
reg_file[8] = 9c0000b4
reg_file[9] = 00000000
reg_file[10] = 00000000
reg_file[11] = 00000000
reg_file[12] = 00000000
reg_file[13] = 00c6de72
reg_file[14] = 004abba2
reg_file[15] = 00000000
UVM_INFO axi_driver.sv(145) @ 1565: uvm_test_top.env.inp_agt.inp_drv [AXI_B] BREADY=1 BVALID=1 BRESP=0
UVM_INFO axi_inp_monitor.sv(81) @ 1575: uvm_test_top.env.inp_agt.inp_mon [AXI_B] BREADY=1 BRESP=0 BVALID=1
UVM_INFO axi_subscriber.sv(158) @ 1575: uvm_test_top.env.sub [sub] [DRIVER]:INPUT RECIEVED
UVM_INFO axi_op_monitor.sv(81) @ 1575: uvm_test_top.env.op_agt.op_mon [OP_B] BVALID=1 BREADY=1 BRESP=0
UVM_INFO axi_scoreboard.sv(42) @ 1575: uvm_test_top.env.scb [SCB] 8
UVM_INFO axi_scoreboard.sv(105) @ 1575: uvm_test_top.env.scb [SCB] WRITE ADDRESS PASS: Exp_AWADDR=14 Actual_AWADDR=14
UVM_INFO axi_scoreboard.sv(110) @ 1575: uvm_test_top.env.scb [SCB] WRITE DATA PASS: Exp_WDATA=9553340 Actual_WDATA=9553340
UVM_INFO axi_scoreboard.sv(115) @ 1575: uvm_test_top.env.scb [SCB] WRITE WSTRB PASS: Exp_WSTRB=8 Actual_WSTRB=8
UVM_INFO axi_scoreboard.sv(120) @ 1575: uvm_test_top.env.scb [SCB] WRITE BRESP PASS: Exp_BRESP=0 Actual_BRESP=0
UVM_INFO axi_driver.sv(111) @ 1595: uvm_test_top.env.inp_agt.inp_drv [AXI_AW] AWADDR=1c AWPROT=0 AWVALID=1 AWREADY=1
UVM_INFO axi_inp_monitor.sv(64) @ 1605: uvm_test_top.env.inp_agt.inp_mon [AXI_AW] AWADDR=1c AWPROT=0 AWVALID=1 AWREADY=1
UVM_INFO axi_op_monitor.sv(64) @ 1605: uvm_test_top.env.op_agt.op_mon [OP_AW] AWVALID=1 AWREADY=1 AWADDR=1c AWPROT=0
UVM_INFO axi_driver.sv(129) @ 1625: uvm_test_top.env.inp_agt.inp_drv [AXI_W] WDATA=8737224e WSTRB=2 WVALID=1 WREADY=1
UVM_INFO axi_inp_monitor.sv(73) @ 1635: uvm_test_top.env.inp_agt.inp_mon [AXI_W] WDATA=8737224e WSTRB=2 WVALID=1 WREADY=1
UVM_INFO axi_op_monitor.sv(73) @ 1635: uvm_test_top.env.op_agt.op_mon [OP_W] WVALID=1 WREADY=1 WDATA=8737224e WSTRB=2
reg_file[0] = cc800000
reg_file[1] = 2c000000
reg_file[2] = 00005187
reg_file[3] = 3c000072
reg_file[4] = 0062626b
reg_file[5] = 09000000
reg_file[6] = 0000f82a
reg_file[7] = 00002200
reg_file[8] = 9c0000b4
reg_file[9] = 00000000
reg_file[10] = 00000000
reg_file[11] = 00000000
reg_file[12] = 00000000
reg_file[13] = 00c6de72
reg_file[14] = 004abba2
reg_file[15] = 00000000
UVM_INFO axi_driver.sv(145) @ 1655: uvm_test_top.env.inp_agt.inp_drv [AXI_B] BREADY=1 BVALID=1 BRESP=0
UVM_INFO axi_inp_monitor.sv(81) @ 1665: uvm_test_top.env.inp_agt.inp_mon [AXI_B] BREADY=1 BRESP=0 BVALID=1
UVM_INFO axi_subscriber.sv(158) @ 1665: uvm_test_top.env.sub [sub] [DRIVER]:INPUT RECIEVED
UVM_INFO axi_op_monitor.sv(81) @ 1665: uvm_test_top.env.op_agt.op_mon [OP_B] BVALID=1 BREADY=1 BRESP=0
UVM_INFO axi_scoreboard.sv(42) @ 1665: uvm_test_top.env.scb [SCB] 2
UVM_INFO axi_scoreboard.sv(105) @ 1665: uvm_test_top.env.scb [SCB] WRITE ADDRESS PASS: Exp_AWADDR=1c Actual_AWADDR=1c
UVM_INFO axi_scoreboard.sv(110) @ 1665: uvm_test_top.env.scb [SCB] WRITE DATA PASS: Exp_WDATA=8737224e Actual_WDATA=8737224e
UVM_INFO axi_scoreboard.sv(115) @ 1665: uvm_test_top.env.scb [SCB] WRITE WSTRB PASS: Exp_WSTRB=2 Actual_WSTRB=2
UVM_INFO axi_scoreboard.sv(120) @ 1665: uvm_test_top.env.scb [SCB] WRITE BRESP PASS: Exp_BRESP=0 Actual_BRESP=0
UVM_INFO axi_driver.sv(111) @ 1685: uvm_test_top.env.inp_agt.inp_drv [AXI_AW] AWADDR=c AWPROT=100 AWVALID=1 AWREADY=1
UVM_INFO axi_inp_monitor.sv(64) @ 1695: uvm_test_top.env.inp_agt.inp_mon [AXI_AW] AWADDR=c AWPROT=100 AWVALID=1 AWREADY=1
UVM_INFO axi_op_monitor.sv(64) @ 1695: uvm_test_top.env.op_agt.op_mon [OP_AW] AWVALID=1 AWREADY=1 AWADDR=c AWPROT=100
UVM_INFO axi_driver.sv(129) @ 1715: uvm_test_top.env.inp_agt.inp_drv [AXI_W] WDATA=2a3078fc WSTRB=2 WVALID=1 WREADY=1
UVM_INFO axi_inp_monitor.sv(73) @ 1725: uvm_test_top.env.inp_agt.inp_mon [AXI_W] WDATA=2a3078fc WSTRB=2 WVALID=1 WREADY=1
UVM_INFO axi_op_monitor.sv(73) @ 1725: uvm_test_top.env.op_agt.op_mon [OP_W] WVALID=1 WREADY=1 WDATA=2a3078fc WSTRB=2
reg_file[0] = cc800000
reg_file[1] = 2c000000
reg_file[2] = 00005187
reg_file[3] = 3c007872
reg_file[4] = 0062626b
reg_file[5] = 09000000
reg_file[6] = 0000f82a
reg_file[7] = 00002200
reg_file[8] = 9c0000b4
reg_file[9] = 00000000
reg_file[10] = 00000000
reg_file[11] = 00000000
reg_file[12] = 00000000
reg_file[13] = 00c6de72
reg_file[14] = 004abba2
reg_file[15] = 00000000
UVM_INFO axi_driver.sv(145) @ 1745: uvm_test_top.env.inp_agt.inp_drv [AXI_B] BREADY=1 BVALID=1 BRESP=0
UVM_INFO axi_inp_monitor.sv(81) @ 1755: uvm_test_top.env.inp_agt.inp_mon [AXI_B] BREADY=1 BRESP=0 BVALID=1
UVM_INFO axi_subscriber.sv(158) @ 1755: uvm_test_top.env.sub [sub] [DRIVER]:INPUT RECIEVED
UVM_INFO axi_op_monitor.sv(81) @ 1755: uvm_test_top.env.op_agt.op_mon [OP_B] BVALID=1 BREADY=1 BRESP=0
UVM_INFO axi_scoreboard.sv(42) @ 1755: uvm_test_top.env.scb [SCB] 2
UVM_INFO axi_scoreboard.sv(105) @ 1755: uvm_test_top.env.scb [SCB] WRITE ADDRESS PASS: Exp_AWADDR=c Actual_AWADDR=c
UVM_INFO axi_scoreboard.sv(110) @ 1755: uvm_test_top.env.scb [SCB] WRITE DATA PASS: Exp_WDATA=2a3078fc Actual_WDATA=2a3078fc
UVM_INFO axi_scoreboard.sv(115) @ 1755: uvm_test_top.env.scb [SCB] WRITE WSTRB PASS: Exp_WSTRB=2 Actual_WSTRB=2
UVM_INFO axi_scoreboard.sv(120) @ 1755: uvm_test_top.env.scb [SCB] WRITE BRESP PASS: Exp_BRESP=0 Actual_BRESP=0
UVM_INFO axi_driver.sv(111) @ 1775: uvm_test_top.env.inp_agt.inp_drv [AXI_AW] AWADDR=10 AWPROT=100 AWVALID=1 AWREADY=1
UVM_INFO axi_inp_monitor.sv(64) @ 1785: uvm_test_top.env.inp_agt.inp_mon [AXI_AW] AWADDR=10 AWPROT=100 AWVALID=1 AWREADY=1
UVM_INFO axi_op_monitor.sv(64) @ 1785: uvm_test_top.env.op_agt.op_mon [OP_AW] AWVALID=1 AWREADY=1 AWADDR=10 AWPROT=100
UVM_INFO axi_driver.sv(129) @ 1805: uvm_test_top.env.inp_agt.inp_drv [AXI_W] WDATA=cce10a85 WSTRB=6 WVALID=1 WREADY=1
UVM_INFO axi_inp_monitor.sv(73) @ 1815: uvm_test_top.env.inp_agt.inp_mon [AXI_W] WDATA=cce10a85 WSTRB=6 WVALID=1 WREADY=1
UVM_INFO axi_op_monitor.sv(73) @ 1815: uvm_test_top.env.op_agt.op_mon [OP_W] WVALID=1 WREADY=1 WDATA=cce10a85 WSTRB=6
UVM_INFO /fetools/synopsys/installed_tools/vcs/vcs/Q-2020.03-SP2-8/etc/uvm/base/uvm_objection.svh(1274) @ 1825: reporter [TEST_DONE] 'run' phase is ready to proceed to the 'extract' phase
UVM_INFO axi_subscriber.sv(163) @ 1825: uvm_test_top.env.sub [sub] INPUT COVERAGE = 64.583336


--- UVM Report Summary ---

** Report counts by severity
UVM_INFO :  296
UVM_WARNING :    0
UVM_ERROR :    0
UVM_FATAL :    0
** Report counts by id
[AXI_AW]    40
[AXI_B]    38
[AXI_W]    40
[DRV]     1
[OP_AW]    20
[OP_B]    19
[OP_W]    20
[RNTST]     1
[SCB]    95
[TEST_DONE]     1
[UVMTOP]     1
[sub]    20
$finish called from file "/fetools/synopsys/installed_tools/vcs/vcs/Q-2020.03-SP2-8/etc/uvm/base/uvm_root.svh", line 437.
$finish at simulation time                 1825

---------------------------------------------------------------------------
VCS Coverage Metrics: during simulation line, cond, FSM, branch, tgl was monitored
---------------------------------------------------------------------------
           V C S   S i m u l a t i o n   R e p o r t 
Time: 1825 ns
CPU Time:      0.580 seconds;       Data structure size:   0.5Mb
Fri Sep 18 14:55:22 2026
